!Keysight Technologies,N5242A,MY48320684,A.10.49.08
!Date: Friday, March 05, 2021 11:01:57
!Correction: S11(Full 2 Port(1,2)) 
!S21(Full 2 Port(1,2)) 
!S12(Full 2 Port(1,2)) 
!S22(Full 2 Port(1,2)) 
!S2P File: Measurements: S11, S21, S12, S22:
# Hz S  dB   R 50
10000000 -0.55188763 -6.0532007 -1.7041998 -39.762703 -52.710464 137.79181 -0.18795221 -51.757782
20000000 -0.71754861 -10.443095 8.7210598 -61.728218 -45.020546 133.96388 -0.31672892 -95.493912
30000000 -0.95155025 -15.118827 13.651394 -79.843613 -39.581848 107.09588 -0.67839158 -127.68338
40000000 -1.2476417 -19.389668 16.51041 -94.500923 -36.670284 93.046638 -1.1236521 -151.73795
50000000 -1.6108631 -23.114225 18.321949 -106.37595 -34.819984 81.180939 -1.6113949 -170.69995
60000000 -1.9751451 -26.374086 19.58399 -115.78895 -33.577503 72.30748 -2.1281219 174.87708
70000000 -2.3468528 -29.187204 20.487942 -123.87954 -32.626678 64.716316 -2.6353672 162.57788
80000000 -2.7083566 -31.557896 21.154266 -130.70897 -32.02906 57.799915 -3.1262841 152.23436
90000000 -3.0505509 -33.696095 21.669323 -136.67 -31.36356 52.705612 -3.5780387 143.2766
100000000 -3.3801112 -35.5956 22.077402 -141.92303 -31.002258 47.803196 -4.0197692 135.43358
200000000 -5.6892457 -47.752163 23.695831 -175.48064 -29.107042 18.759111 -7.1143889 85.368622
300000000 -6.8567319 -56.773682 24.004879 164.13615 -28.648058 3.7656951 -8.6187239 56.369869
400000000 -7.5059714 -66.04557 24.000637 147.92924 -28.49934 -7.1639028 -9.3254108 35.513615
500000000 -7.9431047 -75.730362 23.877562 133.66884 -28.440836 -15.965583 -9.5826225 18.789753
600000000 -8.2723475 -85.700851 23.678949 120.54172 -28.40222 -23.606178 -9.662221 4.3779278
700000000 -8.5525284 -96.22686 23.442738 108.36719 -28.41758 -30.405752 -9.5283632 -7.6463523
800000000 -8.8461294 -106.55647 23.188297 96.526939 -28.377232 -37.118767 -9.3572807 -19.55102
900000000 -9.1038847 -116.72154 22.901403 85.114182 -28.406599 -43.416115 -9.176321 -30.781765
1000000000 -9.3418951 -126.93784 22.593548 74.110725 -28.449984 -49.138008 -8.9960613 -41.333889
1100000000 -9.5950136 -136.99838 22.280609 63.385582 -28.417385 -55.383331 -8.8066511 -51.513973
1200000000 -9.8412657 -146.84203 21.960314 52.964012 -28.422796 -61.080387 -8.6185017 -61.490635
1300000000 -10.085483 -156.66901 21.628187 42.803432 -28.415398 -66.774345 -8.4410448 -70.991867
1400000000 -10.332334 -166.18469 21.294546 32.816639 -28.355618 -72.444824 -8.2859335 -80.365616
1500000000 -10.563348 -175.5457 20.959461 23.126135 -28.37269 -77.831772 -8.1228771 -89.526894
1600000000 -10.765513 175.10521 20.632544 13.639898 -28.283895 -83.196335 -7.9733601 -98.472137
1700000000 -10.994247 165.68739 20.312931 4.2336879 -28.236172 -88.712738 -7.8530736 -107.25245
1800000000 -11.23079 156.3739 19.990705 -5.0429354 -28.168833 -94.137436 -7.7448564 -115.99907
1900000000 -11.486165 147.25882 19.668215 -14.191629 -28.107109 -99.786507 -7.6509929 -124.4574
2000000000 -11.757799 138.36632 19.34416 -23.25634 -28.022686 -105.25462 -7.5552063 -132.82837
2100000000 -12.048809 129.66769 19.013033 -32.117119 -27.962048 -111.04787 -7.4707584 -140.88449
2200000000 -12.347708 121.51414 18.685638 -40.846207 -27.875944 -116.40501 -7.3801236 -148.86456
2300000000 -12.528409 113.69217 18.364908 -49.268555 -27.80855 -121.78006 -7.2736602 -156.636
2400000000 -12.617778 105.91895 18.074841 -57.546215 -27.773096 -127.0959 -7.150835 -164.65054
2500000000 -12.680207 97.585815 17.815094 -65.816132 -27.549292 -132.68187 -7.0583496 -172.66426
2600000000 -12.734564 88.756447 17.56942 -74.091324 -27.435173 -138.02876 -6.9913964 179.29352
2700000000 -12.80338 79.970894 17.330164 -82.429909 -27.267113 -143.6256 -6.9444695 171.30035
2800000000 -12.841936 70.723297 17.076382 -90.740746 -27.208984 -149.58655 -6.8990231 163.28755
2900000000 -13.070452 61.03384 16.842838 -98.793907 -27.045784 -154.79326 -6.9196625 155.43773
3000000000 -13.200051 52.529583 16.624111 -107.03769 -26.922596 -160.92435 -6.8903055 147.74255
3100000000 -13.302327 43.69598 16.405651 -115.25072 -26.711273 -166.83026 -6.8756771 140.01466
3200000000 -13.380512 34.959129 16.183352 -123.41237 -26.622643 -172.72177 -6.8758135 132.25467
3300000000 -13.468743 25.965033 15.965707 -131.54723 -26.444452 -178.84084 -6.8658752 124.5835
3400000000 -13.547379 17.202295 15.753856 -139.6188 -26.321524 175.18832 -6.879447 116.85943
3500000000 -13.59797 8.4437275 15.5431 -147.69125 -26.172344 169.08246 -6.8787665 109.04885
3600000000 -13.658328 -0.26064107 15.338037 -155.74773 -26.078438 163.1899 -6.8873425 101.4274
3700000000 -13.684091 -8.9491491 15.142157 -163.73419 -25.930113 156.94048 -6.8979454 93.721764
3800000000 -13.714827 -17.629496 14.950132 -171.72505 -25.796329 150.84244 -6.9122481 86.013847
3900000000 -13.738006 -26.081844 14.750318 -179.70361 -25.614161 144.53856 -6.925148 78.320007
4000000000 -13.747125 -34.539795 14.566112 172.36748 -25.566259 138.49969 -6.9397197 70.590401
4100000000 -13.727394 -42.836971 14.381556 164.45433 -25.411707 132.48936 -6.958138 62.846745
4200000000 -13.706277 -51.291965 14.203172 156.55655 -25.282825 126.11573 -6.966382 55.148632
4300000000 -13.684467 -59.493996 14.02742 148.67668 -25.154343 119.80313 -6.9780474 47.366688
4400000000 -13.629864 -67.613029 13.859076 140.84412 -25.05463 113.37712 -6.9858131 39.597122
4500000000 -13.581524 -75.548447 13.694467 132.98412 -24.922359 107.17027 -6.9891901 31.740667
4600000000 -13.500254 -83.338844 13.538952 125.13177 -24.811806 100.74021 -6.9847116 23.881807
4700000000 -13.414083 -91.367432 13.383986 117.2244 -24.651243 94.576302 -6.9721389 15.82428
4800000000 -13.316835 -99.234634 13.229869 109.39249 -24.551867 87.970528 -6.9758229 7.8646216
4900000000 -13.206937 -106.9641 13.086349 101.50278 -24.450937 81.585594 -6.9573903 -0.17670357
5000000000 -13.123393 -114.60425 12.93618 93.627487 -24.326708 75.005722 -6.9395227 -8.2301836
5100000000 -13.025088 -122.06851 12.789478 85.767578 -24.225 68.642746 -6.9186029 -16.2148
5200000000 -12.917938 -129.60364 12.647109 77.852951 -24.115576 61.870731 -6.897882 -24.363382
5300000000 -12.829485 -137.00931 12.502233 69.947289 -24.016581 55.292187 -6.8629508 -32.497932
5400000000 -12.73584 -144.31259 12.362212 62.026062 -23.905514 48.70155 -6.8164821 -40.620407
5500000000 -12.62649 -151.16824 12.204746 54.120907 -23.813866 41.966057 -6.7865624 -48.796688
5600000000 -12.400646 -158.20216 12.029302 46.248203 -23.77623 35.36861 -6.7351341 -57.022457
5700000000 -12.242699 -166.66533 11.899346 38.739376 -23.705145 29.304895 -6.7389135 -65.167412
5800000000 -12.277124 -173.93408 11.790938 30.792425 -23.609171 22.5278 -6.6925488 -73.126999
5900000000 -12.207277 179.11731 11.64866 22.849197 -23.487864 15.805722 -6.6133471 -81.263092
6000000000 -12.133719 171.9707 11.4893 15.083688 -23.411839 9.3777847 -6.5358424 -89.399788
6100000000 -12.110074 165.41373 11.369714 7.3334079 -23.34955 2.510597 -6.4837446 -97.606926
6200000000 -12.019228 158.77449 11.249002 -0.5493958 -23.241058 -3.918982 -6.4239526 -105.72699
6300000000 -11.927252 152.26141 11.119068 -8.4139071 -23.166801 -10.861656 -6.3628297 -113.83985
6400000000 -11.791903 145.52458 10.990529 -16.2775 -23.086889 -17.464243 -6.2912412 -121.89639
6500000000 -11.680741 138.90674 10.860552 -24.126421 -23.028313 -24.302006 -6.2031665 -129.91103
6600000000 -11.562188 132.25467 10.734963 -31.963326 -22.9828 -31.087706 -6.1233125 -137.94032
6700000000 -11.465403 125.68755 10.607598 -39.841812 -22.893526 -37.690422 -6.0361738 -146.0313
6800000000 -11.344225 119.10574 10.485808 -47.68808 -22.829758 -44.502586 -5.9426875 -154.04825
6900000000 -11.231901 112.60789 10.356176 -55.532696 -22.800722 -51.28701 -5.8570423 -162.03003
7000000000 -11.103442 106.12865 10.236189 -63.387299 -22.730492 -58.090683 -5.7588201 -170.04776
7100000000 -10.990454 99.638733 10.108525 -71.261261 -22.673946 -64.797394 -5.6636009 -177.92271
7200000000 -10.866275 93.226974 9.9854193 -79.125526 -22.637947 -71.566528 -5.5694237 174.12679
7300000000 -10.745617 86.812531 9.863884 -87.005089 -22.605242 -78.377831 -5.4569988 166.25414
7400000000 -10.604678 80.414726 9.7393484 -94.879822 -22.549763 -85.213951 -5.3591356 158.39171
7500000000 -10.478607 74.123398 9.6145096 -102.73884 -22.507818 -91.926216 -5.2643127 150.5665
7600000000 -10.337331 67.850533 9.4935122 -110.64108 -22.448061 -98.793442 -5.1624279 142.68024
7700000000 -10.191166 61.446289 9.3684483 -118.55936 -22.412142 -105.55873 -5.0707178 134.88522
7800000000 -10.029697 55.227375 9.2539082 -126.47536 -22.4228 -112.62669 -4.9676476 127.12656
7900000000 -9.8841362 48.968266 9.1260538 -134.44304 -22.332434 -119.55457 -4.8818045 119.38763
8000000000 -9.7338705 42.849941 9.0059042 -142.37984 -22.324503 -126.40437 -4.7791677 111.7406
8500000000 -8.7511969 10.409078 8.2908001 177.26228 -22.408518 -162.11333 -4.4705653 73.73288
9000000000 -8.7808781 -18.288174 7.2042198 140.99026 -22.841597 167.4962 -3.5497086 38.74128
9500000000 -7.8096805 -46.270126 6.8506165 102.66402 -22.603777 134.61499 -3.0998995 0.66424346
10000000000 -7.106987 -75.314178 6.347486 63.909214 -22.627728 101.39722 -2.750818 -36.316673
10500000000 -6.5260925 -104.54395 5.8839641 25.26972 -22.625242 68.612152 -2.4853306 -73.206856
11000000000 -6.1178451 -133.1308 5.4538803 -13.819336 -22.496136 35.700714 -2.2622986 -111.10015
11500000000 -5.7580662 -162.95796 5.2041788 -53.477341 -22.658321 2.6621084 -2.2346981 -152.28793
12000000000 -5.6726651 167.4147 4.7855163 -95.927635 -22.741718 -31.54818 -2.5557353 162.50366
12500000000 -5.5655456 137.84435 4.1206427 -137.09746 -23.023321 -63.233692 -2.8561246 118.93867
13000000000 -5.6169262 107.52084 2.8610518 174.55519 -23.668997 -101.54391 -4.0571408 57.28894
13500000000 -5.4771838 76.477524 1.242578 143.73447 -24.633341 -123.52141 -5.7332726 36.697231
14000000000 -5.2814202 44.565804 1.1247761 98.008804 -24.504761 -159.82785 -2.3520074 -17.011543
14500000000 -5.1931496 9.8968019 -0.39281034 57.8265 -24.937353 174.8403 -2.4408102 -57.633732
15000000000 -5.1774006 -24.856947 -1.6518782 14.164908 -24.996971 143.06712 -1.1453853 -99.587944
15500000000 -5.066958 -59.765762 -3.4984543 -26.420111 -25.373882 114.25993 -0.97662175 -138.30296
16000000000 -4.9461966 -96.063286 -5.3116293 -64.647179 -25.393599 86.757767 -1.0766975 -173.37914
16500000000 -5.0352902 -133.38934 -6.9079194 -100.90144 -25.390987 58.060589 -1.383419 155.70477
17000000000 -4.6345196 -168.46898 -8.1712418 -135.34253 -25.092329 32.686104 -1.4078301 127.30973
17500000000 -4.5751619 150.97075 -9.2565184 -175.4883 -24.196516 2.0747137 -1.0098611 96.144539
18000000000 -4.6719546 110.99683 -10.658386 144.99597 -23.673288 -30.258589 -0.93819982 64.504379
18500000000 -4.6811051 71.183922 -12.202039 105.61667 -23.25226 -62.510418 -0.97554231 32.748043
19000000000 -4.7980814 31.327673 -13.929455 66.440811 -23.009134 -96.68528 -1.0174247 1.2945867
19500000000 -4.1043754 -4.189333 -15.430462 27.834236 -22.989559 -123.50536 -1.0765582 -29.3333
20000000000 -3.6347728 -43.729298 -17.009953 -12.65747 -22.238213 -155.90219 -1.1214362 -59.260586
20500000000 -3.3646019 -80.868469 -18.794876 -54.520386 -21.752468 171.67975 -1.1046325 -88.709045
21000000000 -3.1353846 -116.07484 -20.78438 -97.126183 -21.115055 138.88422 -1.1263595 -117.46927
21500000000 -3.019438 -150.28447 -22.951517 -139.81631 -20.571728 104.04352 -1.1539376 -145.39105
22000000000 -2.9620609 179.08751 -24.797634 -179.91228 -20.554333 71.212975 -1.1751856 -173.16292
22500000000 -2.6453581 145.31567 -26.107874 132.90111 -19.825745 38.17662 -1.1916132 159.05373
23000000000 -2.6914246 111.48952 -27.295649 85.195419 -19.275604 3.8172438 -1.2470261 131.64851
23500000000 -2.9602921 76.926102 -27.92041 37.187218 -18.790064 -31.181061 -1.371814 104.02495
24000000000 -3.5126972 44.005596 -28.488935 -9.3682232 -18.45907 -66.865105 -1.5568823 75.300095
24500000000 -3.491344 9.4639587 -27.803785 -49.992516 -17.937183 -100.69262 -1.7779776 45.576797
25000000000 -3.4372082 -26.920755 -26.660976 -91.116837 -17.255648 -136.91364 -2.1040468 14.542582
25500000000 -3.357456 -64.745094 -25.378719 -131.6649 -16.520195 -174.07918 -2.5946686 -18.788258
26000000000 -3.1834717 -102.07259 -23.84889 -172.86417 -15.856926 147.47908 -3.3117104 -55.632336
