!Agilent Technologies,E8363B,SG43030126,A.07.50.67
!Agilent E8363B: A.07.50.67
!Date: Thursday, May 04, 1989 06:40:03
!Correction: S11(Full 2 Port(1,2)) 
!S21(Full 2 Port(1,2)) 
!S12(Full 2 Port(1,2)) 
!S22(Full 2 Port(1,2)) 
!S2P File: Measurements: S11, S21, S12, S22:
# Hz S  dB   R 50
10000000 1.145685e+000 -1.653108e+001 -3.391499e+000 -1.396668e+002 -4.712714e+001 -1.110313e+002 5.652237e-002 -5.417794e+001
34987500 -9.469965e-001 -1.748953e+001 2.521678e+001 1.757373e+002 -6.842128e+001 -2.635539e+001 -5.482376e-001 -1.447132e+002
59975000 -1.231425e+000 -2.835561e+001 3.355367e+001 1.324908e+002 -4.713585e+001 -1.611018e+002 -9.899272e-001 1.652659e+002
84962500 -2.113642e+000 -4.270456e+001 3.961663e+001 1.067261e+002 -5.455159e+001 9.893547e+001 -2.408642e+000 1.300032e+002
109950000 -3.330483e+000 -5.825124e+001 4.293845e+001 7.653162e+001 -6.363855e+001 5.629915e+001 -3.691102e+000 1.023113e+002
134937500 -5.658779e+000 -6.291642e+001 4.445709e+001 5.467754e+001 -5.967868e+001 4.390217e+001 -5.546799e+000 7.821165e+001
159925000 -5.663616e+000 -7.453687e+001 4.636129e+001 3.204953e+001 -5.655888e+001 5.196346e+001 -7.811152e+000 6.179105e+001
184912500 -9.856210e+000 -8.207188e+001 4.686961e+001 1.478823e+001 -5.725116e+001 3.580972e+001 -8.882160e+000 5.213383e+001
209900000 -9.897190e+000 -7.764618e+001 4.744061e+001 -1.020681e+000 -5.888438e+001 2.798135e+000 -1.081395e+001 3.807386e+001
234887500 -1.106449e+001 -6.676932e+001 4.779092e+001 -1.421795e+001 -6.029815e+001 4.250809e+001 -1.308725e+001 3.376971e+001
259875000 -1.250337e+001 -7.029510e+001 4.765316e+001 -3.018392e+001 -5.776558e+001 -2.649985e-001 -1.363308e+001 3.267262e+001
284862500 -1.368918e+001 -5.610344e+001 4.769907e+001 -3.958252e+001 -5.778860e+001 -1.413464e+001 -1.552967e+001 3.602692e+001
309850000 -1.201624e+001 -4.716031e+001 4.760921e+001 -4.968401e+001 -5.411257e+001 -1.539670e+001 -1.463361e+001 3.515654e+001
334837500 -1.229583e+001 -4.307265e+001 4.753166e+001 -6.087701e+001 -5.704292e+001 -3.005345e+001 -1.474592e+001 2.927043e+001
359825000 -1.097595e+001 -4.421206e+001 4.765370e+001 -7.129111e+001 -5.659694e+001 -1.474698e+001 -1.406581e+001 2.883433e+001
384812500 -1.124426e+001 -4.803394e+001 4.739972e+001 -8.143003e+001 -5.760654e+001 -4.160445e+001 -1.388958e+001 2.481265e+001
409800000 -9.635758e+000 -4.644611e+001 4.722266e+001 -9.052069e+001 -5.648249e+001 -5.130959e+001 -1.312444e+001 1.944064e+001
434787500 -9.615482e+000 -5.243391e+001 4.671393e+001 -1.012172e+002 -5.803832e+001 -4.049255e+001 -1.354955e+001 1.386146e+001
459775000 -8.879410e+000 -5.068837e+001 4.668629e+001 -1.053764e+002 -5.716105e+001 -5.139523e+001 -1.323400e+001 1.625143e+001
484762500 -8.954450e+000 -6.225324e+001 4.698467e+001 -1.145277e+002 -5.549286e+001 -4.538224e+001 -1.184579e+001 7.847635e+000
509750000 -8.895941e+000 -6.048765e+001 4.688750e+001 -1.227218e+002 -5.785096e+001 -5.686133e+001 -1.153951e+001 -1.454305e+000
534737500 -8.593080e+000 -6.341762e+001 4.672899e+001 -1.315117e+002 -5.878368e+001 -7.795860e+001 -1.110529e+001 -7.064501e+000
559725000 -7.832773e+000 -6.678451e+001 4.644924e+001 -1.404692e+002 -5.831569e+001 -9.131842e+001 -1.075045e+001 -1.416018e+001
584712500 -8.174991e+000 -7.120406e+001 4.620564e+001 -1.469838e+002 -5.586576e+001 -7.487772e+001 -1.032061e+001 -2.139674e+001
609700000 -7.804278e+000 -8.032873e+001 4.628762e+001 -1.551422e+002 -6.044345e+001 -8.740073e+001 -1.018705e+001 -2.754873e+001
634687500 -7.569918e+000 -8.323666e+001 4.614180e+001 -1.628826e+002 -5.879558e+001 -8.225603e+001 -9.914314e+000 -3.551617e+001
659675000 -7.633918e+000 -8.708784e+001 4.595856e+001 -1.691634e+002 -5.700626e+001 -8.600109e+001 -9.553090e+000 -4.099834e+001
684662500 -7.372393e+000 -9.065714e+001 4.569586e+001 -1.772996e+002 -5.608632e+001 -1.065856e+002 -9.453563e+000 -4.900477e+001
709650000 -7.267126e+000 -9.355820e+001 4.547491e+001 1.750246e+002 -5.767058e+001 -1.140679e+002 -9.269478e+000 -5.447169e+001
734637500 -6.622830e+000 -1.001179e+002 4.522698e+001 1.679685e+002 -5.734567e+001 -9.146294e+001 -8.983097e+000 -6.204976e+001
759625000 -6.947335e+000 -1.076817e+002 4.521609e+001 1.608208e+002 -5.794312e+001 -1.229227e+002 -8.916575e+000 -6.868468e+001
784612500 -6.427480e+000 -1.112778e+002 4.493023e+001 1.542455e+002 -5.558360e+001 -1.191864e+002 -8.679305e+000 -7.437102e+001
809600000 -6.916095e+000 -1.126106e+002 4.467688e+001 1.464068e+002 -5.586539e+001 -1.133885e+002 -8.447911e+000 -8.123915e+001
834587500 -6.811656e+000 -1.152267e+002 4.459069e+001 1.395283e+002 -5.889576e+001 -1.437166e+002 -8.383538e+000 -8.728422e+001
859575000 -6.332578e+000 -1.232005e+002 4.425946e+001 1.339052e+002 -5.749739e+001 -1.365707e+002 -8.336072e+000 -9.428237e+001
884562500 -6.684341e+000 -1.273287e+002 4.431657e+001 1.261935e+002 -5.936055e+001 -1.436149e+002 -8.132619e+000 -1.007862e+002
909550000 -7.131559e+000 -1.292337e+002 4.399834e+001 1.190666e+002 -5.714250e+001 -1.383608e+002 -8.088346e+000 -1.070794e+002
934537500 -6.757484e+000 -1.341413e+002 4.389048e+001 1.131863e+002 -5.887377e+001 -1.481214e+002 -7.935266e+000 -1.128140e+002
959525000 -6.603696e+000 -1.394376e+002 4.367941e+001 1.075862e+002 -5.720453e+001 -1.550461e+002 -7.892395e+000 -1.194190e+002
984512500 -6.270729e+000 -1.424325e+002 4.355334e+001 1.008907e+002 -5.717082e+001 -1.637813e+002 -7.630455e+000 -1.261871e+002
1009500000 -6.551824e+000 -1.473775e+002 4.325895e+001 9.356351e+001 -5.666576e+001 -1.569555e+002 -7.610780e+000 -1.314533e+002
1034487500 -7.038490e+000 -1.530982e+002 4.335282e+001 8.731629e+001 -5.529159e+001 -1.666029e+002 -7.573787e+000 -1.380162e+002
1059475000 -6.639420e+000 -1.560395e+002 4.289426e+001 8.056795e+001 -5.922889e+001 -1.616597e+002 -7.470963e+000 -1.441152e+002
1084462500 -6.717438e+000 -1.604560e+002 4.286685e+001 7.430414e+001 -5.668016e+001 -1.726613e+002 -7.335389e+000 -1.503236e+002
1109450000 -6.827403e+000 -1.620836e+002 4.256832e+001 6.873432e+001 -5.875914e+001 1.783969e+002 -7.314631e+000 -1.559186e+002
1134437500 -6.563611e+000 -1.662996e+002 4.248819e+001 6.233493e+001 -5.908782e+001 -1.694554e+002 -7.226628e+000 -1.624604e+002
1159425000 -6.340775e+000 -1.740493e+002 4.236569e+001 5.807135e+001 -5.980450e+001 1.720908e+002 -7.066049e+000 -1.688477e+002
1184412500 -6.489285e+000 -1.768436e+002 4.230696e+001 5.054332e+001 -5.726614e+001 -1.788913e+002 -7.105968e+000 -1.741675e+002
1209400000 -6.541670e+000 1.782689e+002 4.193838e+001 4.498562e+001 -5.735510e+001 1.698200e+002 -7.008586e+000 1.795309e+002
1234387500 -6.695612e+000 1.752094e+002 4.210641e+001 3.786462e+001 -5.923774e+001 1.706460e+002 -6.904739e+000 1.733481e+002
1259375000 -6.635527e+000 1.708625e+002 4.179672e+001 3.285901e+001 -5.906385e+001 1.569735e+002 -6.926294e+000 1.681583e+002
1284362500 -6.384007e+000 1.669756e+002 4.169042e+001 2.701477e+001 -5.830825e+001 1.553061e+002 -6.874859e+000 1.622734e+002
1309350000 -6.521885e+000 1.611888e+002 4.154142e+001 2.189478e+001 -5.851640e+001 1.672749e+002 -6.856329e+000 1.560697e+002
1334337500 -6.743373e+000 1.624075e+002 4.113407e+001 1.320996e+001 -5.706461e+001 1.362876e+002 -6.708508e+000 1.513285e+002
1359325000 -6.663858e+000 1.570495e+002 4.131355e+001 8.773759e+000 -5.465747e+001 1.308651e+002 -6.613312e+000 1.455158e+002
1384312500 -6.900875e+000 1.519119e+002 4.105219e+001 2.579768e+000 -5.697561e+001 1.447094e+002 -6.698676e+000 1.395395e+002
1409300000 -7.028927e+000 1.482470e+002 4.094098e+001 -3.108668e+000 -5.833545e+001 1.300026e+002 -6.637244e+000 1.340518e+002
1434287500 -6.858249e+000 1.431814e+002 4.100624e+001 -8.867714e+000 -5.875176e+001 1.339286e+002 -6.595137e+000 1.279638e+002
1459275000 -6.891407e+000 1.411799e+002 4.070524e+001 -1.470250e+001 -5.825912e+001 1.388752e+002 -6.630145e+000 1.226390e+002
1484262500 -7.168568e+000 1.371763e+002 4.037643e+001 -2.148793e+001 -5.615356e+001 1.327681e+002 -6.586833e+000 1.173957e+002
1509250000 -6.982890e+000 1.331281e+002 4.062590e+001 -2.741286e+001 -5.781893e+001 1.272812e+002 -6.629693e+000 1.114704e+002
1534237500 -6.731628e+000 1.310813e+002 4.028814e+001 -3.396767e+001 -5.677745e+001 1.208334e+002 -6.628972e+000 1.057101e+002
1559225000 -7.003615e+000 1.288892e+002 3.997797e+001 -3.865006e+001 -5.858551e+001 1.111911e+002 -6.550612e+000 1.003966e+002
1584212500 -7.328583e+000 1.250368e+002 3.994735e+001 -4.419917e+001 -5.612449e+001 1.079834e+002 -6.526353e+000 9.548508e+001
1609200000 -7.517118e+000 1.199544e+002 3.995683e+001 -5.015657e+001 -5.790801e+001 1.015922e+002 -6.544531e+000 9.018826e+001
1634187500 -7.432162e+000 1.171850e+002 3.972330e+001 -5.666447e+001 -5.865792e+001 9.260960e+001 -6.539452e+000 8.482928e+001
1659175000 -7.076260e+000 1.138192e+002 3.958936e+001 -6.203064e+001 -5.591078e+001 1.140182e+002 -6.587035e+000 7.955346e+001
1684162500 -7.299713e+000 1.111924e+002 3.934093e+001 -6.689510e+001 -5.810789e+001 9.715294e+001 -6.563522e+000 7.433209e+001
1709150000 -7.940356e+000 1.071295e+002 3.933606e+001 -7.505690e+001 -5.858281e+001 1.071984e+002 -6.653770e+000 6.937683e+001
1734137500 -7.813004e+000 1.014733e+002 3.928611e+001 -8.135694e+001 -5.627143e+001 7.507103e+001 -6.676514e+000 6.403320e+001
1759125000 -7.906818e+000 9.857739e+001 3.944371e+001 -8.589381e+001 -5.910694e+001 6.581135e+001 -6.642327e+000 5.847231e+001
1784112500 -7.672581e+000 9.426180e+001 3.902493e+001 -9.062970e+001 -5.646144e+001 9.433672e+001 -6.769403e+000 5.397904e+001
1809100000 -8.270671e+000 9.432175e+001 3.915611e+001 -9.826684e+001 -5.593008e+001 6.884653e+001 -6.742764e+000 4.877332e+001
1834087500 -8.085082e+000 9.054816e+001 3.878550e+001 -1.041716e+002 -5.626017e+001 7.151610e+001 -6.732320e+000 4.347790e+001
1859075000 -8.377745e+000 8.678103e+001 3.898457e+001 -1.102112e+002 -5.547179e+001 5.846981e+001 -6.860778e+000 3.916608e+001
1884062500 -8.348473e+000 8.594515e+001 3.873546e+001 -1.179208e+002 -6.023636e+001 4.930679e+001 -6.982752e+000 3.467033e+001
1909050000 -9.112346e+000 8.108953e+001 3.862577e+001 -1.231407e+002 -5.650135e+001 6.096526e+001 -7.006371e+000 3.009111e+001
1934037500 -8.735993e+000 7.739925e+001 3.857791e+001 -1.290000e+002 -5.621917e+001 4.719991e+001 -7.086900e+000 2.537852e+001
1959025000 -8.770358e+000 7.672972e+001 3.852709e+001 -1.341471e+002 -5.855027e+001 4.969159e+001 -7.130706e+000 2.035912e+001
1984012500 -9.189900e+000 7.232170e+001 3.843071e+001 -1.415314e+002 -5.805853e+001 2.970883e+001 -7.365232e+000 1.607575e+001
2009000000 -9.187226e+000 7.134944e+001 3.840801e+001 -1.459852e+002 -5.697508e+001 4.293158e+001 -7.319276e+000 1.104914e+001
2033987500 -9.104037e+000 6.952962e+001 3.798011e+001 -1.524895e+002 -5.571285e+001 4.191188e+001 -7.421446e+000 7.154150e+000
2058975000 -9.817309e+000 6.748729e+001 3.760829e+001 -1.590206e+002 -5.509709e+001 1.784928e+001 -7.437000e+000 3.118936e+000
2083962500 -9.805095e+000 6.816817e+001 3.775603e+001 -1.649781e+002 -5.691372e+001 1.370751e+001 -7.676375e+000 -9.826416e-001
2108950000 -9.261787e+000 6.206976e+001 3.765949e+001 -1.701625e+002 -5.667042e+001 2.855559e+001 -7.769627e+000 -6.079091e+000
2133937500 -9.534756e+000 5.645430e+001 3.721596e+001 -1.745299e+002 -5.747725e+001 1.028962e+001 -7.860531e+000 -9.346505e+000
2158925000 -1.069777e+001 6.014954e+001 3.762031e+001 1.766693e+002 -5.562246e+001 2.125166e+000 -7.935140e+000 -1.315239e+001
2183912500 -1.076125e+001 5.324964e+001 3.739945e+001 1.721624e+002 -5.402904e+001 4.525080e+000 -8.155933e+000 -1.649122e+001
2208900000 -1.025557e+001 5.113058e+001 3.704574e+001 1.640235e+002 -5.535431e+001 4.754970e+000 -8.146399e+000 -2.085682e+001
2233887500 -1.039147e+001 5.494358e+001 3.689925e+001 1.601730e+002 -5.530470e+001 -1.572980e+001 -8.275945e+000 -2.446113e+001
2258875000 -1.140994e+001 4.963587e+001 3.672015e+001 1.518104e+002 -5.817072e+001 -1.968831e+001 -8.337802e+000 -2.657472e+001
2283862500 -1.095263e+001 4.835393e+001 3.658512e+001 1.454123e+002 -5.433255e+001 -8.534375e+000 -8.511483e+000 -3.109323e+001
2308850000 -1.154622e+001 4.867601e+001 3.654535e+001 1.403818e+002 -5.657044e+001 -2.696595e+001 -8.504919e+000 -3.404330e+001
2333837500 -1.122189e+001 4.505865e+001 3.631693e+001 1.339875e+002 -5.783813e+001 -2.093830e+001 -8.549882e+000 -3.763477e+001
2358825000 -1.183445e+001 4.536996e+001 3.638630e+001 1.277643e+002 -5.926373e+001 -1.149191e+001 -8.700049e+000 -4.044392e+001
2383812500 -1.192583e+001 4.504817e+001 3.598273e+001 1.226899e+002 -5.706675e+001 -3.293170e+001 -8.680197e+000 -4.356200e+001
2408800000 -1.122861e+001 4.859372e+001 3.574850e+001 1.167247e+002 -5.675731e+001 -3.504266e+001 -8.734568e+000 -4.659802e+001
2433787500 -1.277829e+001 4.250165e+001 3.574930e+001 1.120401e+002 -5.584631e+001 -2.317710e+001 -8.779295e+000 -4.917344e+001
2458775000 -1.182155e+001 4.352996e+001 3.541933e+001 1.058272e+002 -5.452977e+001 -5.480254e+001 -8.771377e+000 -5.181093e+001
2483762500 -1.173871e+001 4.016177e+001 3.530660e+001 9.973627e+001 -5.482445e+001 -4.831760e+001 -8.863988e+000 -5.528257e+001
2508750000 -1.242659e+001 3.716288e+001 3.510336e+001 9.554523e+001 -5.559080e+001 -5.181302e+001 -8.748564e+000 -5.763574e+001
2533737500 -1.169341e+001 4.147610e+001 3.495536e+001 8.894545e+001 -5.772765e+001 -4.974791e+001 -8.703312e+000 -6.068517e+001
2558725000 -1.192798e+001 3.809380e+001 3.471082e+001 8.326234e+001 -5.535643e+001 -7.313264e+001 -8.613060e+000 -6.351258e+001
2583712500 -1.159402e+001 3.651187e+001 3.428807e+001 7.954610e+001 -5.613243e+001 -6.507968e+001 -8.560198e+000 -6.646991e+001
2608700000 -1.205229e+001 3.781979e+001 3.417146e+001 7.281992e+001 -5.605094e+001 -7.874628e+001 -8.474040e+000 -6.981496e+001
2633687500 -1.208746e+001 3.340992e+001 3.424013e+001 6.764557e+001 -5.426863e+001 -8.603684e+001 -8.365498e+000 -7.196748e+001
2658675000 -1.086259e+001 3.203298e+001 3.410012e+001 5.910495e+001 -5.406261e+001 -7.444280e+001 -8.212815e+000 -7.480331e+001
2683662500 -1.230316e+001 3.023462e+001 3.380742e+001 5.584481e+001 -5.368976e+001 -7.711627e+001 -8.069038e+000 -7.809604e+001
2708650000 -1.145703e+001 3.472079e+001 3.368842e+001 5.001432e+001 -5.509638e+001 -7.998578e+001 -8.010647e+000 -8.169284e+001
2733637500 -1.164551e+001 3.150237e+001 3.317461e+001 4.545671e+001 -5.668351e+001 -9.765608e+001 -7.879921e+000 -8.502750e+001
2758625000 -1.173541e+001 3.099540e+001 3.354509e+001 3.889614e+001 -5.768985e+001 -1.007101e+002 -7.735133e+000 -8.831702e+001
2783612500 -1.168559e+001 2.995882e+001 3.314592e+001 3.409468e+001 -5.484517e+001 -9.906729e+001 -7.580262e+000 -9.137383e+001
2808600000 -1.085662e+001 2.273953e+001 3.283494e+001 2.703666e+001 -5.670798e+001 -9.295383e+001 -7.572055e+000 -9.471308e+001
2833587500 -1.199075e+001 2.295188e+001 3.257473e+001 2.088636e+001 -5.626817e+001 -9.252614e+001 -7.341205e+000 -9.815569e+001
2858575000 -1.096254e+001 2.408957e+001 3.251078e+001 1.845631e+001 -5.721724e+001 -1.011307e+002 -7.232172e+000 -1.022459e+002
2883562500 -1.110693e+001 2.334402e+001 3.233546e+001 1.299769e+001 -5.558167e+001 -1.122337e+002 -7.086484e+000 -1.051902e+002
2908550000 -1.142217e+001 1.835918e+001 3.215695e+001 6.614612e+000 -5.661666e+001 -1.289223e+002 -6.950553e+000 -1.090346e+002
2933537500 -1.134426e+001 2.141150e+001 3.190470e+001 7.193172e-001 -5.634385e+001 -1.182804e+002 -6.846666e+000 -1.127203e+002
2958525000 -1.043656e+001 1.578258e+001 3.187090e+001 -2.827777e+000 -5.494950e+001 -1.420395e+002 -6.739824e+000 -1.164339e+002
2983512500 -1.064992e+001 1.416585e+001 3.150601e+001 -7.384263e+000 -5.445943e+001 -1.202610e+002 -6.574406e+000 -1.198132e+002
3008500000 -1.060957e+001 1.138122e+001 3.105334e+001 -1.496794e+001 -5.579463e+001 -1.305869e+002 -6.447758e+000 -1.236307e+002
3033487500 -1.013310e+001 1.401348e+001 3.129490e+001 -1.884509e+001 -5.466735e+001 -1.447170e+002 -6.398372e+000 -1.278728e+002
3058475000 -1.115690e+001 5.677166e+000 3.100875e+001 -2.627583e+001 -5.961800e+001 -1.429281e+002 -6.264161e+000 -1.314462e+002
3083462500 -1.087329e+001 5.053116e+000 3.075813e+001 -3.089941e+001 -5.721994e+001 -1.392323e+002 -6.170635e+000 -1.351858e+002
3108450000 -1.075015e+001 7.483869e-001 3.039177e+001 -3.416964e+001 -5.661061e+001 -1.521314e+002 -6.050372e+000 -1.387839e+002
3133437500 -1.081810e+001 4.993648e+000 3.068764e+001 -3.806038e+001 -5.383711e+001 -1.464578e+002 -5.950819e+000 -1.427332e+002
3158425000 -1.041804e+001 -1.796572e+000 3.021806e+001 -4.310692e+001 -5.470898e+001 -1.616691e+002 -5.895234e+000 -1.473690e+002
3183412500 -1.023068e+001 -3.086991e+000 2.996419e+001 -5.107227e+001 -5.423043e+001 -1.595150e+002 -5.869308e+000 -1.513973e+002
3208400000 -1.063836e+001 -5.324791e+000 3.033582e+001 -5.476834e+001 -5.471648e+001 -1.665549e+002 -5.757897e+000 -1.550138e+002
3233387500 -1.019281e+001 -6.627305e+000 3.021467e+001 -5.879527e+001 -5.422026e+001 -1.788224e+002 -5.676234e+000 -1.587208e+002
3258375000 -1.042739e+001 -1.141377e+001 2.981846e+001 -6.701717e+001 -5.576135e+001 -1.573449e+002 -5.483487e+000 -1.636309e+002
3283362500 -1.014717e+001 -1.441725e+001 2.943546e+001 -6.877071e+001 -5.613321e+001 -1.797403e+002 -5.455380e+000 -1.672818e+002
3308350000 -1.002804e+001 -1.401120e+001 2.945029e+001 -7.471851e+001 -5.281987e+001 -1.632819e+002 -5.486097e+000 -1.711895e+002
3333337500 -1.036672e+001 -2.171611e+001 2.934929e+001 -8.052032e+001 -5.277388e+001 -1.759074e+002 -5.327120e+000 -1.749520e+002
3358325000 -1.000542e+001 -1.663263e+001 2.910486e+001 -8.376333e+001 -5.545390e+001 -1.677513e+002 -5.268730e+000 -1.788440e+002
3383312500 -1.087835e+001 -2.209073e+001 2.902540e+001 -8.809535e+001 -5.514005e+001 1.771646e+002 -5.260420e+000 1.765824e+002
3408300000 -1.007988e+001 -2.484424e+001 2.882482e+001 -9.410007e+001 -5.498447e+001 1.543788e+002 -5.241037e+000 1.720265e+002
3433287500 -1.089440e+001 -2.939436e+001 2.898216e+001 -9.761300e+001 -5.470852e+001 1.548280e+002 -5.185891e+000 1.687296e+002
3458275000 -1.074006e+001 -3.112546e+001 2.874104e+001 -1.021631e+002 -5.247164e+001 1.439740e+002 -5.139066e+000 1.647903e+002
3483262500 -1.020722e+001 -3.129002e+001 2.889707e+001 -1.070283e+002 -5.428546e+001 1.411013e+002 -5.029491e+000 1.597987e+002
3508250000 -1.054512e+001 -3.584660e+001 2.838166e+001 -1.135123e+002 -5.462856e+001 1.614483e+002 -5.014729e+000 1.562404e+002
3533237500 -1.049186e+001 -3.764901e+001 2.880141e+001 -1.181545e+002 -5.293089e+001 1.460230e+002 -5.021073e+000 1.519683e+002
3558225000 -1.107566e+001 -3.717168e+001 2.863267e+001 -1.206567e+002 -5.569722e+001 1.475771e+002 -4.945374e+000 1.481060e+002
3583212500 -1.030811e+001 -3.957914e+001 2.843296e+001 -1.284277e+002 -5.349610e+001 1.440040e+002 -4.891562e+000 1.438937e+002
3608200000 -1.138079e+001 -4.555110e+001 2.855548e+001 -1.316730e+002 -5.352168e+001 1.497285e+002 -4.927704e+000 1.395446e+002
3633187500 -1.067781e+001 -5.059690e+001 2.812700e+001 -1.373698e+002 -5.415902e+001 1.406619e+002 -4.985017e+000 1.353717e+002
3658175000 -1.128303e+001 -5.087834e+001 2.792523e+001 -1.446796e+002 -5.388058e+001 1.439983e+002 -4.928761e+000 1.314197e+002
3683162500 -1.123629e+001 -4.930120e+001 2.790980e+001 -1.470916e+002 -5.399420e+001 1.303933e+002 -4.911976e+000 1.269699e+002
3708150000 -1.113207e+001 -5.456993e+001 2.846543e+001 -1.507851e+002 -5.681469e+001 1.193295e+002 -4.883001e+000 1.222466e+002
3733137500 -1.114470e+001 -5.705734e+001 2.807175e+001 -1.566320e+002 -5.467252e+001 1.079577e+002 -4.847852e+000 1.182240e+002
3758125000 -1.116850e+001 -6.075205e+001 2.786884e+001 -1.625392e+002 -5.167316e+001 1.165469e+002 -4.856727e+000 1.141473e+002
3783112500 -1.093957e+001 -5.821489e+001 2.794269e+001 -1.628676e+002 -5.482695e+001 1.283304e+002 -4.890838e+000 1.096758e+002
