!Agilent Technologies,E8363B,SG43030126,A.07.50.67
!Agilent E8363B: A.07.50.67
!Date: Tuesday, September 27, 1988 10:05:43
!Correction: S11(Full 2 Port(1,2)) 
!S21(Full 2 Port(1,2)) 
!S12(Full 2 Port(1,2)) 
!S22(Full 2 Port(1,2)) 
!S2P File: Measurements: S11, S21, S12, S22:
# Hz S  dB   R 50
10000000 -2.182555e+000 -5.566321e+000 -1.514194e+000 -1.183070e+002 -3.469943e+001 -1.926569e+001 -1.203438e-001 -5.801495e+001
59975000 -2.717356e+000 -3.180874e+001 3.420899e+001 1.306003e+002 -5.025190e+001 -9.268168e+001 -1.357030e+000 1.593890e+002
109950000 -3.839575e+000 -4.915004e+001 4.327102e+001 7.375594e+001 -4.766379e+001 -8.670325e+001 -4.255506e+000 9.974003e+001
159925000 -5.256120e+000 -7.222500e+001 4.682644e+001 2.640934e+001 -5.415529e+001 1.645517e+002 -7.432492e+000 4.490756e+001
209900000 -8.776970e+000 -8.373946e+001 4.807034e+001 -1.389806e+001 -4.675874e+001 1.520031e+002 -1.155154e+001 2.775756e+001
259875000 -1.167795e+001 -6.472332e+001 4.863216e+001 -4.556739e+001 -5.036345e+001 1.202964e+002 -1.526710e+001 1.876893e+001
309850000 -9.386785e+000 -6.802870e+001 4.846666e+001 -7.252441e+001 -5.833642e+001 2.504893e+001 -1.544337e+001 1.956569e+001
359825000 -7.532333e+000 -6.646117e+001 4.821184e+001 -9.800175e+001 -5.776697e+001 -1.206862e+002 -1.369362e+001 4.008621e+000
409800000 -6.562307e+000 -7.455707e+001 4.747250e+001 -1.224329e+002 -5.475595e+001 -8.934790e+001 -1.380690e+001 -1.186638e+001
459775000 -7.209278e+000 -7.415582e+001 4.761901e+001 -1.381590e+002 -5.731633e+001 -1.223941e+002 -1.111405e+001 -1.701572e+001
509750000 -6.480611e+000 -9.303719e+001 4.723460e+001 -1.609329e+002 -5.851094e+001 -1.128702e+002 -1.022239e+001 -3.592365e+001
559725000 -6.023723e+000 -1.008923e+002 4.673288e+001 1.791997e+002 -5.463300e+001 -7.975649e+001 -9.331723e+000 -5.430802e+001
609700000 -6.270799e+000 -1.089348e+002 4.635555e+001 1.606789e+002 -5.193875e+001 -1.297938e+002 -8.702291e+000 -7.417358e+001
659675000 -5.747331e+000 -1.237221e+002 4.605819e+001 1.422493e+002 -5.578954e+001 -1.595920e+002 -8.033785e+000 -9.079471e+001
709650000 -5.358047e+000 -1.336957e+002 4.546579e+001 1.248460e+002 -5.881221e+001 -1.126876e+002 -7.583900e+000 -1.057102e+002
759625000 -5.229085e+000 -1.444576e+002 4.503318e+001 1.080736e+002 -5.859161e+001 -9.196333e+001 -6.913403e+000 -1.223572e+002
809600000 -4.993338e+000 -1.551228e+002 4.441365e+001 9.144800e+001 -6.036367e+001 -2.856034e+001 -6.783807e+000 -1.396193e+002
859575000 -4.917352e+000 -1.633333e+002 4.424945e+001 7.777664e+001 -5.856785e+001 -1.795508e+002 -6.562575e+000 -1.535137e+002
909550000 -5.388222e+000 -1.761970e+002 4.385968e+001 6.108611e+001 -5.795698e+001 -1.606189e+002 -6.453756e+000 -1.676294e+002
959525000 -5.388712e+000 -1.777928e+002 4.355244e+001 4.765607e+001 -5.778567e+001 8.459741e+001 -6.119748e+000 1.775930e+002
1009500000 -5.174975e+000 1.641901e+002 4.313796e+001 3.166463e+001 -6.286738e+001 1.655923e+002 -6.034801e+000 1.635509e+002
1059475000 -5.846982e+000 1.569655e+002 4.289215e+001 1.450996e+001 -5.772993e+001 8.880479e+001 -5.904118e+000 1.494556e+002
1109450000 -4.840416e+000 1.469781e+002 4.259641e+001 1.430776e+000 -5.752811e+001 1.276499e+002 -6.004021e+000 1.359692e+002
1159425000 -5.773122e+000 1.354086e+002 4.245214e+001 -1.433872e+001 -5.762605e+001 1.500203e+002 -6.031188e+000 1.236775e+002
1209400000 -5.922403e+000 1.312875e+002 4.216663e+001 -2.829285e+001 -6.213995e+001 7.598753e+001 -5.922895e+000 1.100559e+002
1259375000 -5.518761e+000 1.230125e+002 4.182522e+001 -4.454889e+001 -5.713435e+001 7.393586e+001 -6.044676e+000 9.709782e+001
1309350000 -7.071117e+000 1.108523e+002 4.174673e+001 -5.920937e+001 -7.265549e+001 -1.031332e+002 -6.242069e+000 8.461543e+001
1359325000 -6.601718e+000 9.893401e+001 4.198915e+001 -7.509545e+001 -5.319725e+001 6.364564e+001 -6.218534e+000 7.129104e+001
1409300000 -7.231964e+000 8.775420e+001 4.176214e+001 -8.824129e+001 -5.656831e+001 3.278681e+000 -6.612048e+000 5.998748e+001
1459275000 -9.194106e+000 8.428220e+001 4.171375e+001 -1.044073e+002 -5.758575e+001 3.708541e+001 -6.961287e+000 4.703198e+001
1509250000 -7.960988e+000 7.483852e+001 4.156826e+001 -1.234233e+002 -5.641263e+001 1.860549e+001 -7.361715e+000 3.535454e+001
1559225000 -1.028769e+001 6.981358e+001 4.154601e+001 -1.380842e+002 -5.654523e+001 2.856542e+001 -7.961141e+000 2.355914e+001
1609200000 -1.167483e+001 5.921335e+001 4.165261e+001 -1.540318e+002 -5.734290e+001 3.990102e+000 -8.670175e+000 1.435763e+001
1659175000 -1.310605e+001 4.118304e+001 4.115855e+001 -1.698065e+002 -5.557583e+001 -3.159591e+001 -9.660890e+000 3.152621e+000
1709150000 -1.451619e+001 4.318906e+001 4.118710e+001 1.717587e+002 -5.410173e+001 2.147257e+001 -1.037035e+001 -5.595602e+000
1759125000 -1.562107e+001 3.938622e+001 4.080020e+001 1.560723e+002 -5.805379e+001 1.630967e+001 -1.082720e+001 -1.287346e+001
1809100000 -1.638141e+001 2.265819e+001 4.074540e+001 1.400856e+002 -6.256988e+001 1.023522e+001 -1.137184e+001 -2.039582e+001
1859075000 -2.173681e+001 1.955125e+001 4.013956e+001 1.235187e+002 -5.856948e+001 -5.095912e+001 -1.206385e+001 -2.786773e+001
1909050000 -2.225387e+001 6.397557e+001 4.010824e+001 1.075702e+002 -5.100358e+001 -6.221884e+001 -1.272317e+001 -2.860375e+001
1959025000 -1.926398e+001 5.436201e+001 3.978236e+001 9.087893e+001 -5.628215e+001 -9.213551e+001 -1.288377e+001 -3.727803e+001
2009000000 -2.085446e+001 3.464211e+001 3.904476e+001 7.469807e+001 -5.980901e+001 -8.789130e+001 -1.296445e+001 -4.236887e+001
2058975000 -2.265840e+001 3.482215e+001 3.890630e+001 5.924965e+001 -5.952099e+001 -1.047909e+002 -1.305971e+001 -4.932426e+001
2108950000 -2.165157e+001 3.865419e+001 3.847343e+001 4.319459e+001 -5.449334e+001 -9.206521e+001 -1.253574e+001 -5.741576e+001
2158925000 -2.263062e+001 4.090504e+001 3.761715e+001 2.870100e+001 -5.575977e+001 1.761824e+002 -1.266093e+001 -6.908553e+001
2208900000 -2.320395e+001 4.717519e+001 3.783482e+001 1.452235e+001 -5.332978e+001 -1.080965e+002 -1.244264e+001 -7.530811e+001
2258875000 -2.686865e+001 -4.244944e+001 3.696126e+001 2.320280e-003 -7.121439e+001 -8.335751e+001 -1.291112e+001 -8.918204e+001
2308850000 -2.302980e+001 -5.942976e+000 3.659288e+001 -1.514478e+001 -5.162859e+001 -1.508695e+002 -1.273491e+001 -1.008830e+002
2358825000 -2.496465e+001 -1.337829e+001 3.647419e+001 -2.827838e+001 -5.670419e+001 -1.614053e+002 -1.289483e+001 -1.146027e+002
2408800000 -1.947545e+001 -6.353032e+001 3.595760e+001 -4.512486e+001 -5.378673e+001 1.563499e+002 -1.311839e+001 -1.299187e+002
2458775000 -1.861266e+001 -7.830212e+001 3.549943e+001 -5.941571e+001 -6.022928e+001 9.764796e+001 -1.330228e+001 -1.435206e+002
2508750000 -2.529378e+001 -1.293024e+002 3.524095e+001 -7.280671e+001 -5.522746e+001 1.545176e+002 -1.345671e+001 -1.602906e+002
2558725000 -1.851472e+001 -1.496467e+002 3.503803e+001 -8.852328e+001 -5.929165e+001 9.992845e+001 -1.347273e+001 -1.769822e+002
2608700000 -1.837534e+001 -1.346379e+002 3.484826e+001 -1.018868e+002 -6.146140e+001 1.250567e+002 -1.341005e+001 1.636482e+002
2658675000 -1.719296e+001 -1.630838e+002 3.427638e+001 -1.152554e+002 -5.349145e+001 1.040954e+002 -1.326703e+001 1.455701e+002
2708650000 -1.411062e+001 -1.444635e+002 3.419353e+001 -1.314930e+002 -5.430873e+001 9.344795e+001 -1.296183e+001 1.268837e+002
2758625000 -1.443773e+001 -1.732251e+002 3.406404e+001 -1.448616e+002 -5.682723e+001 5.954903e+001 -1.243117e+001 1.077387e+002
2808600000 -1.211952e+001 -1.799348e+002 3.353631e+001 -1.605087e+002 -5.205365e+001 7.251614e+001 -1.201367e+001 8.880054e+001
2858575000 -1.204294e+001 1.649769e+002 3.337691e+001 -1.744917e+002 -5.481749e+001 4.698745e+001 -1.110200e+001 7.313818e+001
2908550000 -1.189313e+001 1.727786e+002 3.280037e+001 1.702994e+002 -5.126191e+001 5.303878e+001 -1.049722e+001 5.674938e+001
2958525000 -1.085936e+001 1.542941e+002 3.265953e+001 1.572119e+002 -5.722643e+001 2.115865e+001 -9.579547e+000 4.079653e+001
3008500000 -9.739459e+000 1.487663e+002 3.236654e+001 1.408509e+002 -5.437811e+001 6.452003e+001 -8.910587e+000 2.607420e+001
3058475000 -9.234308e+000 1.498579e+002 3.187866e+001 1.284471e+002 -5.354486e+001 2.686036e+001 -8.089868e+000 1.248047e+001
3108450000 -8.229504e+000 1.350128e+002 3.148259e+001 1.120211e+002 -5.626971e+001 1.958627e+001 -7.572935e+000 -1.576593e+000
3158425000 -9.247756e+000 1.425365e+002 3.102667e+001 9.925709e+001 -5.490083e+001 6.768237e+001 -6.997909e+000 -1.379570e+001
3208400000 -6.838700e+000 1.288144e+002 3.098143e+001 8.797836e+001 -5.197313e+001 -7.094749e-001 -6.327778e+000 -2.616449e+001
3258375000 -6.905320e+000 1.238885e+002 3.055335e+001 7.081581e+001 -5.958083e+001 -8.170580e+001 -5.894124e+000 -3.799781e+001
3308350000 -6.448196e+000 1.177331e+002 3.012189e+001 5.797911e+001 -5.635930e+001 -1.686064e+001 -5.433953e+000 -4.988374e+001
3358325000 -7.066333e+000 1.117325e+002 2.970207e+001 4.431795e+001 -5.244084e+001 1.883029e+000 -5.071026e+000 -6.037936e+001
3408300000 -5.901717e+000 1.085818e+002 2.949298e+001 2.983124e+001 -5.651327e+001 3.537851e+000 -4.596923e+000 -7.223811e+001
3458275000 -5.215092e+000 9.684261e+001 2.915944e+001 1.564467e+001 -5.375928e+001 -3.152384e+001 -4.459516e+000 -8.287001e+001
3508250000 -5.589067e+000 8.893975e+001 2.865552e+001 5.190125e+000 -5.709523e+001 -7.995571e+001 -4.100819e+000 -9.279836e+001
3558225000 -6.184789e+000 8.864793e+001 2.863478e+001 -9.216806e+000 -5.509763e+001 -3.851361e+001 -4.053657e+000 -1.033427e+002
3608200000 -5.640275e+000 8.162036e+001 2.844799e+001 -2.337988e+001 -5.376616e+001 -3.931648e+001 -3.861467e+000 -1.130241e+002
3658175000 -5.851945e+000 8.447688e+001 2.818019e+001 -3.362027e+001 -5.153014e+001 -1.240325e+002 -3.756693e+000 -1.233944e+002
3708150000 -4.812571e+000 6.971122e+001 2.783177e+001 -4.825719e+001 -5.790069e+001 -8.250219e+001 -3.778720e+000 -1.321677e+002
3758125000 -5.423241e+000 6.919149e+001 2.752668e+001 -6.248782e+001 -5.530156e+001 -1.231867e+002 -3.711888e+000 -1.414720e+002
3808100000 -5.814833e+000 5.986482e+001 2.732474e+001 -7.598393e+001 -5.278966e+001 -1.464428e+002 -3.762922e+000 -1.505883e+002
3858075000 -5.946872e+000 6.133013e+001 2.705829e+001 -9.016853e+001 -6.123526e+001 -1.590767e+002 -3.761747e+000 -1.592915e+002
3908050000 -5.443524e+000 5.253329e+001 2.695134e+001 -1.015437e+002 -5.376695e+001 -1.532252e+002 -3.986056e+000 -1.684508e+002
3958025000 -5.206707e+000 4.619221e+001 2.707026e+001 -1.151494e+002 -5.585939e+001 1.790567e+002 -4.000668e+000 -1.760773e+002
4008000000 -5.569429e+000 5.011596e+001 2.666101e+001 -1.311735e+002 -5.472541e+001 1.531041e+002 -4.257687e+000 1.753283e+002
4057975000 -5.535194e+000 4.221049e+001 2.651767e+001 -1.462811e+002 -5.381501e+001 1.265868e+002 -4.555872e+000 1.681009e+002
4107950000 -5.141055e+000 4.117142e+001 2.586333e+001 -1.573585e+002 -6.267020e+001 1.531220e+002 -4.770592e+000 1.596924e+002
4157925000 -6.175503e+000 4.113068e+001 2.577556e+001 -1.715021e+002 -5.998116e+001 8.022060e+001 -5.120132e+000 1.538465e+002
4207900000 -6.472476e+000 3.251530e+001 2.602160e+001 1.749566e+002 -5.347156e+001 1.065007e+002 -5.193925e+000 1.458397e+002
4257875000 -6.333945e+000 3.109036e+001 2.563216e+001 1.630004e+002 -5.544680e+001 1.384530e+002 -5.610821e+000 1.410244e+002
4307850000 -5.898460e+000 2.564151e+001 2.560521e+001 1.474896e+002 -4.882708e+001 8.076683e+001 -5.771939e+000 1.343854e+002
4357825000 -5.897697e+000 1.979884e+001 2.527464e+001 1.345944e+002 -5.064063e+001 1.159034e+002 -6.127278e+000 1.285273e+002
4407800000 -6.484151e+000 2.876186e+001 2.488857e+001 1.222348e+002 -5.496508e+001 4.800511e+001 -6.295157e+000 1.228888e+002
4457775000 -6.798955e+000 2.213962e+001 2.483928e+001 1.082478e+002 -5.895198e+001 9.252556e+001 -6.602652e+000 1.166215e+002
4507750000 -6.390769e+000 2.140295e+001 2.450586e+001 9.544702e+001 -6.095258e+001 5.386191e+001 -6.663838e+000 1.111966e+002
4557725000 -5.131284e+000 1.609463e+001 2.461533e+001 8.334412e+001 -4.976743e+001 2.321674e+001 -6.868145e+000 1.062901e+002
4607700000 -6.035124e+000 1.551402e+001 2.442684e+001 6.945733e+001 -6.011806e+001 -1.914056e+000 -7.046637e+000 9.988827e+001
4657675000 -5.783237e+000 1.072621e+001 2.411588e+001 5.680467e+001 -5.548433e+001 1.986595e+001 -7.356805e+000 9.267213e+001
4707650000 -5.823890e+000 7.964386e+000 2.416274e+001 4.513233e+001 -5.513029e+001 2.581107e+001 -7.662948e+000 8.693794e+001
4757625000 -5.830883e+000 7.023201e+000 2.427605e+001 3.003250e+001 -6.333424e+001 1.289812e+001 -7.974020e+000 7.852786e+001
4807600000 -6.165166e+000 3.852777e+000 2.407264e+001 1.858897e+001 -5.120002e+001 5.357388e-001 -8.450153e+000 7.153542e+001
4857575000 -5.806935e+000 -4.783219e-001 2.404934e+001 5.791356e+000 -5.479206e+001 -3.928654e+001 -9.027793e+000 6.316893e+001
4907550000 -5.537456e+000 -2.375984e+000 2.452133e+001 -8.184711e+000 -5.564452e+001 -4.180556e+001 -9.800568e+000 5.432490e+001
4957525000 -5.579253e+000 -8.777854e+000 2.445307e+001 -2.215865e+001 -5.929012e+001 -4.241833e+001 -1.100284e+001 4.382819e+001
5007500000 -5.437640e+000 -1.180159e+001 2.450232e+001 -3.542323e+001 -5.219319e+001 -1.057091e+002 -1.256703e+001 3.337748e+001
5057475000 -6.728527e+000 -1.530098e+001 2.483227e+001 -5.099401e+001 -5.622615e+001 -4.123203e+001 -1.486963e+001 1.971985e+001
5107450000 -7.192359e+000 -2.081794e+001 2.506872e+001 -6.575259e+001 -5.596789e+001 -1.040177e+002 -1.879764e+001 -2.121354e-001
5157425000 -7.569418e+000 -2.794669e+001 2.497218e+001 -8.142319e+001 -5.455463e+001 -8.218950e+001 -2.580010e+001 -4.468616e+001
5207400000 -7.905698e+000 -2.917109e+001 2.527832e+001 -9.773785e+001 -5.822314e+001 -1.222260e+002 -2.278115e+001 -1.419949e+002
5257375000 -9.516171e+000 -3.751462e+001 2.515110e+001 -1.146801e+002 -5.057538e+001 -1.450500e+002 -1.596714e+001 -1.769457e+002
5307350000 -1.046329e+001 -3.803154e+001 2.523352e+001 -1.314877e+002 -5.049856e+001 -1.422531e+002 -1.215540e+001 1.654230e+002
5357325000 -1.137817e+001 -3.599283e+001 2.501165e+001 -1.495746e+002 -5.120680e+001 -1.724116e+002 -9.336943e+000 1.505621e+002
5407300000 -1.214448e+001 -3.295928e+001 2.462553e+001 -1.650210e+002 -5.378827e+001 1.794093e+002 -7.429435e+000 1.360567e+002
5457275000 -1.338879e+001 -1.824442e+001 2.450995e+001 1.769920e+002 -5.112217e+001 1.555353e+002 -6.061149e+000 1.238280e+002
5507250000 -1.383558e+001 -1.243261e+001 2.421787e+001 1.609274e+002 -5.322678e+001 1.204186e+002 -4.883220e+000 1.113381e+002
5557225000 -1.255501e+001 -1.899984e+001 2.352301e+001 1.461502e+002 -5.361958e+001 1.328318e+002 -4.213554e+000 1.001488e+002
5607200000 -1.163841e+001 -9.991245e+000 2.314044e+001 1.288759e+002 -5.124139e+001 1.213738e+002 -3.556191e+000 8.967850e+001
5657175000 -1.225103e+001 1.286447e+001 2.259717e+001 1.158176e+002 -5.068252e+001 9.215338e+001 -3.223655e+000 7.900314e+001
5707150000 -1.087949e+001 1.326715e+000 2.213313e+001 9.957812e+001 -4.924182e+001 8.161307e+001 -2.902002e+000 6.992046e+001
5757125000 -1.026303e+001 1.132068e-001 2.181250e+001 8.356370e+001 -4.870457e+001 7.158540e+001 -2.690290e+000 6.075395e+001
5807100000 -1.145428e+001 2.849890e-002 2.138338e+001 7.042010e+001 -5.065503e+001 6.082105e+001 -2.520138e+000 5.229670e+001
5857075000 -1.035486e+001 6.236802e+000 2.078019e+001 5.587392e+001 -4.915881e+001 3.148128e+001 -2.468753e+000 4.391624e+001
5907050000 -8.017076e+000 2.007813e+000 2.046175e+001 4.006393e+001 -4.971468e+001 1.761893e+001 -2.397795e+000 3.693120e+001
5957025000 -7.953515e+000 2.410594e-001 1.956496e+001 2.668266e+001 -4.861978e+001 1.032469e+001 -2.293350e+000 2.919024e+001
6007000000 -7.419440e+000 -4.955623e+000 1.906984e+001 1.190273e+001 -5.062564e+001 -1.941455e+001 -2.280272e+000 2.238217e+001
6056975000 -7.949048e+000 7.431483e-001 1.901312e+001 1.459074e-001 -6.240208e+001 -3.449988e+001 -2.265649e+000 1.512863e+001
6106950000 -6.833813e+000 -9.464147e+000 1.808032e+001 -1.593632e+001 -4.846066e+001 -4.732368e+001 -2.286299e+000 8.394664e+000
6156925000 -6.051871e+000 -8.330704e+000 1.758447e+001 -2.946424e+001 -4.771510e+001 -4.562996e+001 -2.210780e+000 1.588882e+000
6206900000 -6.077942e+000 -1.427644e+001 1.748115e+001 -4.228802e+001 -5.592073e+001 -6.976441e+001 -2.239042e+000 -5.019636e+000
6256875000 -5.664953e+000 -1.577650e+001 1.672697e+001 -5.471889e+001 -5.675319e+001 -5.058623e+001 -2.230314e+000 -1.186686e+001
6306850000 -5.162822e+000 -2.406797e+001 1.619507e+001 -7.078416e+001 -5.123621e+001 -6.599168e+001 -2.229106e+000 -1.710777e+001
6356825000 -4.688740e+000 -2.286561e+001 1.607665e+001 -8.145567e+001 -5.420647e+001 -7.958148e+001 -2.199103e+000 -2.392684e+001
6406800000 -4.611458e+000 -2.729065e+001 1.553362e+001 -9.473830e+001 -4.840159e+001 -8.392786e+001 -2.169512e+000 -3.059060e+001
6456775000 -4.860369e+000 -3.228890e+001 1.501336e+001 -1.078641e+002 -5.154583e+001 -8.446044e+001 -2.263382e+000 -3.679347e+001
6506750000 -4.726670e+000 -3.086469e+001 1.406745e+001 -1.167570e+002 -5.055003e+001 -9.717060e+001 -2.213336e+000 -4.303939e+001
6556725000 -4.018012e+000 -3.920405e+001 1.368801e+001 -1.316243e+002 -5.428033e+001 -1.622913e+002 -2.283906e+000 -4.898049e+001
6606700000 -4.078894e+000 -4.270614e+001 1.377692e+001 -1.432717e+002 -6.405582e+001 -1.409244e+002 -2.258471e+000 -5.584507e+001
6656675000 -3.969444e+000 -3.963256e+001 1.331802e+001 -1.557375e+002 -6.264285e+001 -1.519389e+002 -2.375686e+000 -6.180952e+001
6706650000 -4.288035e+000 -4.087232e+001 1.303891e+001 -1.671233e+002 -5.808337e+001 -1.727527e+002 -2.405782e+000 -6.686612e+001
6756625000 -4.100601e+000 -4.606180e+001 1.261147e+001 -1.790047e+002 -5.053195e+001 -1.772225e+002 -2.279401e+000 -7.282949e+001
6806600000 -4.174628e+000 -4.850156e+001 1.192606e+001 1.705708e+002 -5.264957e+001 -1.694931e+002 -2.190252e+000 -7.966675e+001
6856575000 -4.174573e+000 -5.167138e+001 1.193436e+001 1.570827e+002 -5.168323e+001 -1.538128e+002 -2.242910e+000 -8.642435e+001
6906550000 -3.930343e+000 -5.064107e+001 1.225590e+001 1.464731e+002 -4.721712e+001 1.628452e+002 -2.209049e+000 -9.223497e+001
6956525000 -3.103236e+000 -5.444732e+001 1.152591e+001 1.325106e+002 -5.158167e+001 1.660990e+002 -2.276527e+000 -9.957706e+001
7006500000 -2.596519e+000 -5.831003e+001 1.145521e+001 1.200843e+002 -5.058038e+001 1.462587e+002 -2.263752e+000 -1.061408e+002
7056475000 -3.563721e+000 -6.038127e+001 1.107958e+001 1.080170e+002 -5.140771e+001 -1.787892e+002 -2.287479e+000 -1.133068e+002
7106450000 -2.550992e+000 -6.421937e+001 1.157324e+001 9.536684e+001 -5.827318e+001 1.489225e+002 -2.488145e+000 -1.203459e+002
7156425000 -2.914366e+000 -6.752296e+001 1.116354e+001 8.381321e+001 -4.976561e+001 1.321648e+002 -2.573749e+000 -1.270154e+002
7206400000 -2.344730e+000 -6.806281e+001 1.133205e+001 7.250695e+001 -5.237566e+001 9.437961e+001 -2.735720e+000 -1.347159e+002
7256375000 -3.139549e+000 -7.184182e+001 1.107421e+001 6.176309e+001 -5.170803e+001 9.615133e+001 -3.000516e+000 -1.420273e+002
7306350000 -2.880210e+000 -7.340330e+001 1.094322e+001 4.927154e+001 -5.180349e+001 8.663298e+001 -3.408485e+000 -1.492948e+002
7356325000 -2.918623e+000 -7.585122e+001 1.070353e+001 3.513173e+001 -5.259975e+001 7.390454e+001 -3.697053e+000 -1.545188e+002
7406300000 -2.283021e+000 -7.769725e+001 1.104327e+001 2.584539e+001 -5.254877e+001 4.730550e+001 -3.938397e+000 -1.621869e+002
7456275000 -2.260247e+000 -8.232415e+001 1.160435e+001 1.244110e+001 -5.100646e+001 5.590509e+001 -4.432743e+000 -1.705217e+002
7506250000 -2.394357e+000 -8.510339e+001 1.153646e+001 -3.235258e+000 -5.408927e+001 1.393286e+001 -5.315484e+000 -1.793626e+002
7556225000 -2.153096e+000 -8.588546e+001 1.159520e+001 -1.792228e+001 -6.332067e+001 1.218787e+002 -6.499245e+000 1.749228e+002
7606200000 -2.320362e+000 -8.824490e+001 1.191123e+001 -3.344051e+001 -7.385959e+001 -4.379551e+001 -8.030081e+000 1.698885e+002
7656175000 -2.688425e+000 -9.376549e+001 1.147371e+001 -5.095436e+001 -5.154643e+001 7.029142e+001 -9.175562e+000 1.747438e+002
