!Agilent Technologies,E8363B,SG43030126,A.07.50.67
!Agilent E8363B: A.07.50.67
!Date: Thursday, May 04, 1989 06:41:27
!Correction: S11(Full 2 Port(1,2)) 
!S21(Full 2 Port(1,2)) 
!S12(Full 2 Port(1,2)) 
!S22(Full 2 Port(1,2)) 
!S2P File: Measurements: S11, S21, S12, S22:
# Hz S  dB   R 50
10000000 1.012946e+000 -1.284966e+001 -8.399436e+000 -1.292387e+002 -4.000162e+001 -1.363673e+002 -1.365225e-002 -5.378832e+001
34987500 -1.954254e-001 -8.782678e+000 6.366905e+000 1.422466e+002 -5.904619e+001 6.003477e+001 -1.414294e+000 -1.332657e+002
59975000 -7.375845e-001 -1.601324e+001 1.092121e+001 1.170751e+002 -5.606609e+001 -1.672016e+002 -1.966084e+000 -1.654786e+002
84962500 1.140331e-002 -2.302593e+001 1.577283e+001 1.166728e+002 -6.498353e+001 1.757062e+002 -2.308819e+000 1.750116e+002
109950000 -5.718826e-001 -3.122460e+001 1.991049e+001 1.062532e+002 -6.497955e+001 -1.179556e+001 -2.567817e+000 1.603642e+002
134937500 -8.895187e-001 -3.583173e+001 2.213413e+001 9.887683e+001 -5.963117e+001 -1.516345e+002 -2.823068e+000 1.476884e+002
159925000 -9.620903e-001 -4.256802e+001 2.579077e+001 9.160981e+001 -6.756910e+001 3.723051e+001 -3.075473e+000 1.359087e+002
184912500 -1.059725e+000 -5.314860e+001 2.788860e+001 8.292754e+001 -7.896031e+001 1.323215e+002 -3.392800e+000 1.246975e+002
209900000 -1.097268e+000 -6.083125e+001 3.001043e+001 7.073804e+001 -6.607621e+001 -1.784889e+002 -3.802802e+000 1.140715e+002
234887500 -1.560468e+000 -6.432446e+001 3.147215e+001 6.316425e+001 -5.545750e+001 6.569800e+001 -4.199690e+000 1.035577e+002
259875000 -2.109030e+000 -7.355284e+001 3.304829e+001 4.862713e+001 -5.495365e+001 7.513068e+001 -4.790308e+000 9.390217e+001
284862500 -3.028565e+000 -7.513440e+001 3.388060e+001 4.170299e+001 -5.919816e+001 7.806234e+001 -5.489909e+000 8.384164e+001
309850000 -3.538074e+000 -8.579333e+001 3.496985e+001 3.209347e+001 -5.316023e+001 8.419164e+001 -6.262990e+000 7.485136e+001
334837500 -4.533605e+000 -9.095882e+001 3.582644e+001 1.872419e+001 -5.194744e+001 5.846003e+001 -7.151104e+000 6.677499e+001
359825000 -5.189461e+000 -9.888033e+001 3.688420e+001 8.056843e+000 -5.092873e+001 3.922918e+001 -8.266326e+000 6.034092e+001
384812500 -7.060450e+000 -1.004615e+002 3.735963e+001 -3.342580e+000 -5.256032e+001 2.063423e+001 -9.411777e+000 5.368912e+001
409800000 -7.585471e+000 -1.046071e+002 3.774957e+001 -1.405134e+001 -5.067077e+001 2.867978e+001 -1.079397e+001 5.071412e+001
434787500 -8.992201e+000 -9.820744e+001 3.765006e+001 -2.591104e+001 -5.028347e+001 1.695255e+001 -1.195325e+001 5.080338e+001
459775000 -1.022166e+001 -1.006481e+002 3.799226e+001 -3.178447e+001 -5.157792e+001 7.311965e+000 -1.203614e+001 4.531075e+001
484762500 -1.054322e+001 -1.015240e+002 3.866600e+001 -4.147135e+001 -5.126117e+001 -7.668666e-001 -1.303836e+001 4.639158e+001
509750000 -1.194923e+001 -9.684790e+001 3.885197e+001 -5.083536e+001 -4.992876e+001 -5.232176e+000 -1.342904e+001 4.615644e+001
534737500 -1.239956e+001 -9.128342e+001 3.895452e+001 -6.064330e+001 -5.026173e+001 -3.196849e+001 -1.396576e+001 4.769480e+001
559725000 -1.219867e+001 -8.959577e+001 3.907395e+001 -7.036478e+001 -5.094289e+001 -2.401152e+001 -1.409772e+001 4.931227e+001
584712500 -1.189429e+001 -8.719994e+001 3.896916e+001 -7.665145e+001 -5.011515e+001 -3.253268e+001 -1.373532e+001 4.951472e+001
609700000 -1.105637e+001 -8.395072e+001 3.911049e+001 -8.434405e+001 -5.004282e+001 -5.033156e+001 -1.370727e+001 4.738109e+001
634687500 -1.107606e+001 -8.395303e+001 3.920508e+001 -9.254533e+001 -4.977132e+001 -5.765742e+001 -1.333767e+001 4.461749e+001
659675000 -1.035041e+001 -8.275813e+001 3.901171e+001 -9.880015e+001 -4.901997e+001 -5.419636e+001 -1.286201e+001 4.342098e+001
684662500 -1.037433e+001 -8.340932e+001 3.920795e+001 -1.075015e+002 -5.060368e+001 -5.849062e+001 -1.252975e+001 3.844330e+001
709650000 -9.960144e+000 -8.536317e+001 3.906004e+001 -1.151209e+002 -4.934156e+001 -7.437936e+001 -1.249120e+001 3.614585e+001
734637500 -9.317718e+000 -8.618201e+001 3.897216e+001 -1.238274e+002 -4.940340e+001 -7.785516e+001 -1.204541e+001 3.006767e+001
759625000 -8.848520e+000 -9.635150e+001 3.892610e+001 -1.286516e+002 -4.921553e+001 -8.605179e+001 -1.190553e+001 2.589129e+001
784612500 -8.240809e+000 -9.506030e+001 3.880063e+001 -1.365224e+002 -4.974615e+001 -9.306954e+001 -1.168387e+001 2.324914e+001
809600000 -8.701604e+000 -9.800889e+001 3.890973e+001 -1.433034e+002 -4.844196e+001 -1.029545e+002 -1.151108e+001 1.744056e+001
834587500 -8.345057e+000 -1.037803e+002 3.893081e+001 -1.494055e+002 -4.985455e+001 -1.084924e+002 -1.147992e+001 1.371399e+001
859575000 -8.021566e+000 -1.038892e+002 3.884017e+001 -1.563781e+002 -4.952368e+001 -1.089282e+002 -1.149885e+001 7.057144e+000
884562500 -8.221977e+000 -1.122500e+002 3.884394e+001 -1.601300e+002 -4.921769e+001 -1.117869e+002 -1.128171e+001 1.115067e+000
909550000 -8.144391e+000 -1.146016e+002 3.870515e+001 -1.674549e+002 -4.956001e+001 -1.179800e+002 -1.139382e+001 -3.089654e+000
934537500 -7.769043e+000 -1.163288e+002 3.868520e+001 -1.737015e+002 -4.929049e+001 -1.235520e+002 -1.122135e+001 -7.301391e+000
959525000 -7.513552e+000 -1.192072e+002 3.855976e+001 1.795786e+002 -4.992521e+001 -1.375795e+002 -1.127479e+001 -1.256243e+001
984512500 -7.524254e+000 -1.256553e+002 3.871127e+001 1.742608e+002 -4.908847e+001 -1.404549e+002 -1.104106e+001 -2.040693e+001
1009500000 -7.480679e+000 -1.276470e+002 3.843148e+001 1.674200e+002 -4.964524e+001 -1.502401e+002 -1.110425e+001 -2.346719e+001
1034487500 -7.368947e+000 -1.357035e+002 3.840315e+001 1.630271e+002 -5.015457e+001 -1.456787e+002 -1.117344e+001 -2.879356e+001
1059475000 -7.668516e+000 -1.348366e+002 3.853698e+001 1.554736e+002 -4.993072e+001 -1.484881e+002 -1.125208e+001 -3.354219e+001
1084462500 -7.470809e+000 -1.388692e+002 3.842499e+001 1.503419e+002 -4.943414e+001 -1.595313e+002 -1.119661e+001 -3.972246e+001
1109450000 -7.374766e+000 -1.426185e+002 3.847459e+001 1.443540e+002 -5.055156e+001 -1.703451e+002 -1.122752e+001 -4.413565e+001
1134437500 -7.158232e+000 -1.460374e+002 3.838443e+001 1.373166e+002 -4.997190e+001 -1.715932e+002 -1.130537e+001 -4.950349e+001
1159425000 -6.749226e+000 -1.517455e+002 3.823878e+001 1.322417e+002 -5.094008e+001 -1.731136e+002 -1.135598e+001 -5.747419e+001
1184412500 -7.010453e+000 -1.551554e+002 3.809048e+001 1.269022e+002 -4.863649e+001 1.774720e+002 -1.142477e+001 -6.146328e+001
1209400000 -7.296292e+000 -1.573326e+002 3.819791e+001 1.212896e+002 -4.925001e+001 1.786665e+002 -1.154292e+001 -6.758398e+001
1234387500 -7.150436e+000 -1.641397e+002 3.809195e+001 1.153639e+002 -4.939614e+001 1.686029e+002 -1.164642e+001 -7.358823e+001
1259375000 -6.903022e+000 -1.690126e+002 3.786119e+001 1.085768e+002 -4.919729e+001 1.710076e+002 -1.182924e+001 -7.774879e+001
1284362500 -6.511249e+000 -1.710500e+002 3.791407e+001 1.030333e+002 -4.967860e+001 1.597750e+002 -1.183555e+001 -8.401300e+001
1309350000 -6.886001e+000 -1.739989e+002 3.777328e+001 9.764291e+001 -5.015773e+001 1.593650e+002 -1.205431e+001 -8.924632e+001
1334337500 -6.833113e+000 -1.748393e+002 3.789095e+001 9.183392e+001 -5.049496e+001 1.476404e+002 -1.182118e+001 -9.393216e+001
1359325000 -6.796081e+000 1.773415e+002 3.772584e+001 8.656432e+001 -5.069498e+001 1.497807e+002 -1.203047e+001 -9.991843e+001
1384312500 -6.888241e+000 1.725524e+002 3.755297e+001 8.041417e+001 -4.998851e+001 1.417526e+002 -1.220670e+001 -1.051170e+002
1409300000 -6.922929e+000 1.696907e+002 3.759905e+001 7.471458e+001 -5.035263e+001 1.339566e+002 -1.225822e+001 -1.110108e+002
1434287500 -7.133348e+000 1.664405e+002 3.756096e+001 6.997976e+001 -5.017076e+001 1.291426e+002 -1.238606e+001 -1.183245e+002
1459275000 -6.871826e+000 1.656504e+002 3.760924e+001 6.434486e+001 -5.050644e+001 1.282703e+002 -1.257308e+001 -1.229516e+002
1484262500 -6.961618e+000 1.602884e+002 3.743953e+001 5.867062e+001 -5.019303e+001 1.201060e+002 -1.257260e+001 -1.293475e+002
1509250000 -7.220590e+000 1.543148e+002 3.747869e+001 5.390628e+001 -5.016552e+001 1.242314e+002 -1.305067e+001 -1.351989e+002
1534237500 -6.991627e+000 1.530466e+002 3.746638e+001 4.817884e+001 -4.947130e+001 1.152526e+002 -1.319437e+001 -1.419333e+002
1559225000 -7.035125e+000 1.506298e+002 3.731249e+001 4.221679e+001 -4.921589e+001 1.087715e+002 -1.315438e+001 -1.488069e+002
1584212500 -6.967062e+000 1.472754e+002 3.732136e+001 3.740195e+001 -4.984948e+001 1.028410e+002 -1.307854e+001 -1.531915e+002
1609200000 -6.949281e+000 1.415990e+002 3.710921e+001 3.181339e+001 -4.951814e+001 1.031909e+002 -1.342708e+001 -1.593033e+002
1634187500 -7.283584e+000 1.407577e+002 3.713847e+001 2.654990e+001 -4.987219e+001 9.102737e+001 -1.341373e+001 -1.651503e+002
1659175000 -7.031808e+000 1.351169e+002 3.704826e+001 2.119814e+001 -4.941755e+001 9.444637e+001 -1.371273e+001 -1.726260e+002
1684162500 -7.068670e+000 1.352423e+002 3.705613e+001 1.585937e+001 -4.894575e+001 8.492523e+001 -1.356154e+001 1.799642e+002
1709150000 -7.415797e+000 1.269992e+002 3.693464e+001 9.744818e+000 -5.022923e+001 8.351006e+001 -1.395356e+001 1.758055e+002
1734137500 -7.617545e+000 1.219784e+002 3.697773e+001 4.214068e+000 -5.098225e+001 7.725886e+001 -1.411654e+001 1.690541e+002
1759125000 -7.446659e+000 1.202338e+002 3.687772e+001 -8.773120e-002 -4.983712e+001 6.785760e+001 -1.416366e+001 1.622182e+002
1784112500 -7.274391e+000 1.174175e+002 3.690343e+001 -5.901455e+000 -4.981847e+001 6.489781e+001 -1.460405e+001 1.557436e+002
1809100000 -7.814836e+000 1.137885e+002 3.675180e+001 -1.030295e+001 -5.010853e+001 5.896169e+001 -1.440532e+001 1.488009e+002
1834087500 -7.290538e+000 1.116796e+002 3.665784e+001 -1.632071e+001 -4.998179e+001 4.998759e+001 -1.450210e+001 1.399500e+002
1859075000 -7.997208e+000 1.074739e+002 3.676735e+001 -2.109630e+001 -4.868336e+001 4.978455e+001 -1.483853e+001 1.364059e+002
1884062500 -7.893942e+000 1.052389e+002 3.668953e+001 -2.701358e+001 -4.920122e+001 5.164016e+001 -1.471279e+001 1.308212e+002
1909050000 -7.957063e+000 1.025005e+002 3.653146e+001 -3.250847e+001 -5.030170e+001 4.829551e+001 -1.478720e+001 1.250226e+002
1934037500 -8.170156e+000 9.717281e+001 3.656046e+001 -3.810424e+001 -4.990290e+001 3.843603e+001 -1.490176e+001 1.183760e+002
1959025000 -7.978370e+000 9.526814e+001 3.650791e+001 -4.200434e+001 -5.038905e+001 4.545639e+001 -1.470524e+001 1.106458e+002
1984012500 -8.225982e+000 9.229443e+001 3.660237e+001 -4.770488e+001 -4.985023e+001 2.790027e+001 -1.533914e+001 1.043524e+002
2009000000 -8.281431e+000 8.914233e+001 3.643747e+001 -5.269319e+001 -4.980219e+001 2.220161e+001 -1.527095e+001 9.665498e+001
2033987500 -8.375423e+000 8.861192e+001 3.641331e+001 -5.861768e+001 -4.918535e+001 2.367483e+001 -1.510573e+001 9.269453e+001
2058975000 -9.014788e+000 8.845724e+001 3.611707e+001 -6.406894e+001 -4.961448e+001 1.113347e+001 -1.480944e+001 8.671904e+001
2083962500 -8.782670e+000 8.322593e+001 3.618870e+001 -6.885454e+001 -4.994963e+001 2.899958e+000 -1.525960e+001 7.979119e+001
2108950000 -8.438560e+000 7.954914e+001 3.621050e+001 -7.370191e+001 -5.022204e+001 9.784978e+000 -1.530042e+001 7.065959e+001
2133937500 -8.384447e+000 7.659464e+001 3.600063e+001 -7.900784e+001 -4.900138e+001 5.940151e+000 -1.505128e+001 6.675742e+001
2158925000 -9.134242e+000 7.450276e+001 3.620298e+001 -8.380835e+001 -4.933750e+001 -1.308683e+001 -1.505330e+001 6.011980e+001
2183912500 -9.274312e+000 6.805535e+001 3.605091e+001 -8.977734e+001 -4.966635e+001 -6.469398e+000 -1.533267e+001 5.729922e+001
2208900000 -9.997869e+000 6.603410e+001 3.597726e+001 -9.493922e+001 -5.013930e+001 -1.270543e+001 -1.522208e+001 4.970686e+001
2233887500 -9.570856e+000 6.483536e+001 3.592470e+001 -9.994588e+001 -4.912181e+001 -1.562774e+001 -1.528080e+001 4.172357e+001
2258875000 -1.078222e+001 6.170963e+001 3.599253e+001 -1.057654e+002 -4.968615e+001 -1.869131e+001 -1.541381e+001 4.124590e+001
2283862500 -9.548217e+000 6.117773e+001 3.590913e+001 -1.108045e+002 -4.931587e+001 -2.944608e+001 -1.543295e+001 3.279675e+001
2308850000 -1.015059e+001 5.605319e+001 3.588177e+001 -1.156692e+002 -4.907804e+001 -3.110035e+001 -1.548817e+001 2.778025e+001
2333837500 -1.040138e+001 5.539029e+001 3.580837e+001 -1.208759e+002 -4.920354e+001 -2.731300e+001 -1.517607e+001 2.183641e+001
2358825000 -1.100121e+001 5.389125e+001 3.595118e+001 -1.256039e+002 -4.912209e+001 -4.640639e+001 -1.553957e+001 1.840609e+001
2383812500 -1.133061e+001 5.341448e+001 3.578481e+001 -1.306204e+002 -4.895111e+001 -3.540611e+001 -1.501925e+001 1.181491e+001
2408800000 -1.107574e+001 5.012405e+001 3.569367e+001 -1.357228e+002 -5.014516e+001 -4.338708e+001 -1.537760e+001 6.045244e+000
2433787500 -1.174016e+001 4.066526e+001 3.574120e+001 -1.409453e+002 -4.888567e+001 -5.383419e+001 -1.545721e+001 1.763732e+000
2458775000 -1.105950e+001 4.718142e+001 3.569258e+001 -1.460580e+002 -4.965622e+001 -5.206958e+001 -1.562810e+001 -4.807194e+000
2483762500 -1.105187e+001 4.189037e+001 3.570079e+001 -1.510055e+002 -4.994647e+001 -5.434570e+001 -1.553194e+001 -1.230133e+001
2508750000 -1.219413e+001 3.477784e+001 3.563190e+001 -1.557124e+002 -4.979463e+001 -5.953482e+001 -1.574512e+001 -1.316046e+001
2533737500 -1.200079e+001 3.735016e+001 3.563079e+001 -1.612782e+002 -4.957433e+001 -6.066651e+001 -1.562459e+001 -2.046831e+001
2558725000 -1.212738e+001 4.158253e+001 3.558404e+001 -1.661337e+002 -4.834225e+001 -8.160300e+001 -1.573112e+001 -2.198743e+001
2583712500 -1.211889e+001 3.335507e+001 3.545493e+001 -1.706021e+002 -4.863041e+001 -7.983680e+001 -1.573507e+001 -2.704201e+001
2608700000 -1.266845e+001 3.746575e+001 3.546428e+001 -1.766408e+002 -5.010806e+001 -8.740282e+001 -1.542755e+001 -3.293782e+001
2633687500 -1.281680e+001 3.315075e+001 3.560288e+001 1.790946e+002 -4.848162e+001 -9.035282e+001 -1.620675e+001 -3.468167e+001
2658675000 -1.276289e+001 3.709745e+001 3.562349e+001 1.720015e+002 -4.929018e+001 -9.208580e+001 -1.633842e+001 -3.774803e+001
2683662500 -1.452272e+001 3.178472e+001 3.549559e+001 1.681663e+002 -4.804411e+001 -1.011734e+002 -1.609342e+001 -3.916557e+001
2708650000 -1.423203e+001 3.661141e+001 3.553098e+001 1.624402e+002 -4.960923e+001 -1.014551e+002 -1.603826e+001 -4.538266e+001
2733637500 -1.398928e+001 3.067341e+001 3.544295e+001 1.578197e+002 -4.878107e+001 -1.111134e+002 -1.590787e+001 -4.818660e+001
2758625000 -1.452318e+001 3.803110e+001 3.557856e+001 1.521507e+002 -5.033380e+001 -1.189771e+002 -1.611278e+001 -5.037957e+001
2783612500 -1.468575e+001 3.625664e+001 3.544969e+001 1.465165e+002 -4.915637e+001 -1.241585e+002 -1.621158e+001 -5.263456e+001
2808600000 -1.364002e+001 3.751739e+001 3.542007e+001 1.406881e+002 -4.834840e+001 -1.214009e+002 -1.660725e+001 -5.648300e+001
2833587500 -1.473232e+001 3.739842e+001 3.530231e+001 1.352018e+002 -4.906618e+001 -1.249862e+002 -1.616116e+001 -5.579507e+001
2858575000 -1.494770e+001 3.908028e+001 3.529447e+001 1.309779e+002 -4.896394e+001 -1.259673e+002 -1.601720e+001 -6.115932e+001
2883562500 -1.487489e+001 4.142912e+001 3.524014e+001 1.256805e+002 -4.929626e+001 -1.400520e+002 -1.588504e+001 -6.125944e+001
2908550000 -1.480146e+001 3.766659e+001 3.524522e+001 1.199686e+002 -4.751245e+001 -1.475630e+002 -1.557651e+001 -6.339972e+001
2933537500 -1.472423e+001 4.203819e+001 3.510061e+001 1.145113e+002 -4.914818e+001 -1.429517e+002 -1.541843e+001 -6.577418e+001
2958525000 -1.418419e+001 3.765112e+001 3.523151e+001 1.092680e+002 -4.945395e+001 -1.523820e+002 -1.579599e+001 -7.176265e+001
2983512500 -1.476020e+001 4.115456e+001 3.509019e+001 1.042374e+002 -4.836377e+001 -1.544569e+002 -1.538468e+001 -6.943050e+001
3008500000 -1.443617e+001 3.865086e+001 3.493667e+001 9.746436e+001 -4.930312e+001 -1.611548e+002 -1.516423e+001 -7.160052e+001
3033487500 -1.307405e+001 4.154369e+001 3.510478e+001 9.283939e+001 -4.912397e+001 -1.608469e+002 -1.507870e+001 -7.731997e+001
3058475000 -1.379329e+001 3.799871e+001 3.497468e+001 8.695240e+001 -4.785221e+001 -1.670361e+002 -1.439575e+001 -7.654243e+001
3083462500 -1.351490e+001 3.496353e+001 3.487281e+001 8.124704e+001 -4.908951e+001 -1.725391e+002 -1.447451e+001 -8.016300e+001
3108450000 -1.373965e+001 3.456337e+001 3.467528e+001 7.638280e+001 -4.893233e+001 -1.791992e+002 -1.411851e+001 -8.154797e+001
3133437500 -1.284340e+001 4.192021e+001 3.475470e+001 7.175201e+001 -4.875733e+001 -1.776494e+002 -1.376597e+001 -8.512823e+001
3158425000 -1.229658e+001 4.006580e+001 3.455295e+001 6.600274e+001 -5.001211e+001 1.764849e+002 -1.360110e+001 -8.868385e+001
3183412500 -1.154280e+001 3.776897e+001 3.446598e+001 5.968687e+001 -4.932883e+001 1.711286e+002 -1.340268e+001 -9.220294e+001
3208400000 -1.184952e+001 3.738042e+001 3.453127e+001 5.562982e+001 -4.837999e+001 1.633547e+002 -1.268296e+001 -9.418195e+001
3233387500 -1.089320e+001 3.157286e+001 3.450065e+001 5.089363e+001 -4.949732e+001 1.652695e+002 -1.270881e+001 -9.790553e+001
3258375000 -1.122872e+001 2.798180e+001 3.450532e+001 4.414596e+001 -4.923400e+001 1.541061e+002 -1.247670e+001 -1.014473e+002
3283362500 -1.051306e+001 3.083984e+001 3.425202e+001 3.927111e+001 -4.868000e+001 1.447866e+002 -1.212343e+001 -1.041160e+002
3308350000 -1.055526e+001 2.834941e+001 3.416055e+001 3.473836e+001 -4.885503e+001 1.404467e+002 -1.171802e+001 -1.082887e+002
3333337500 -1.048822e+001 2.616112e+001 3.408854e+001 2.936909e+001 -4.924480e+001 1.461026e+002 -1.128428e+001 -1.120874e+002
3358325000 -9.881705e+000 2.540265e+001 3.399408e+001 2.421559e+001 -4.983648e+001 1.355022e+002 -1.124990e+001 -1.164842e+002
3383312500 -1.001924e+001 2.435203e+001 3.388498e+001 1.924939e+001 -4.989652e+001 1.286923e+002 -1.093989e+001 -1.198435e+002
3408300000 -9.298909e+000 2.107023e+001 3.371393e+001 1.342217e+001 -4.997886e+001 1.333600e+002 -1.069963e+001 -1.246239e+002
3433287500 -9.807055e+000 1.473747e+001 3.372314e+001 9.414948e+000 -5.013802e+001 1.242443e+002 -1.046209e+001 -1.277343e+002
3458275000 -9.670326e+000 1.077463e+001 3.345337e+001 3.739302e+000 -4.953333e+001 1.183524e+002 -1.026183e+001 -1.314021e+002
3483262500 -8.574470e+000 1.194202e+001 3.359944e+001 -8.133284e-001 -5.042555e+001 1.242436e+002 -1.013431e+001 -1.369366e+002
3508250000 -9.274390e+000 7.811779e+000 3.331877e+001 -7.244876e+000 -5.012017e+001 1.081587e+002 -9.835220e+000 -1.387303e+002
3533237500 -8.802526e+000 6.057801e+000 3.346759e+001 -1.010631e+001 -4.963205e+001 9.854502e+001 -9.608762e+000 -1.439577e+002
3558225000 -8.809577e+000 3.571940e+000 3.315331e+001 -1.486225e+001 -4.992657e+001 1.043991e+002 -9.377828e+000 -1.478746e+002
3583212500 -8.503449e+000 6.889142e-001 3.340292e+001 -2.143093e+001 -4.934278e+001 1.020860e+002 -9.432137e+000 -1.519537e+002
3608200000 -8.518556e+000 9.625331e-001 3.317693e+001 -2.568528e+001 -5.071811e+001 9.889376e+001 -9.218370e+000 -1.559162e+002
3633187500 -8.530492e+000 -3.810659e+000 3.305114e+001 -3.208004e+001 -5.042837e+001 1.018414e+002 -9.227609e+000 -1.591684e+002
3658175000 -8.658284e+000 -7.657391e+000 3.296984e+001 -3.682008e+001 -4.990503e+001 9.117894e+001 -8.918446e+000 -1.635560e+002
3683162500 -9.006411e+000 -6.375581e+000 3.286607e+001 -4.009054e+001 -5.051281e+001 7.349043e+001 -8.895144e+000 -1.684010e+002
3708150000 -8.576567e+000 -1.421095e+001 3.293026e+001 -4.436894e+001 -4.918110e+001 6.653627e+001 -8.832188e+000 -1.715378e+002
3733137500 -8.592473e+000 -1.595460e+001 3.270597e+001 -5.079546e+001 -5.048582e+001 7.352071e+001 -8.597883e+000 -1.751066e+002
3758125000 -8.691793e+000 -1.828053e+001 3.256694e+001 -5.584954e+001 -4.890910e+001 7.084000e+001 -8.480947e+000 1.799388e+002
3783112500 -8.257159e+000 -1.729816e+001 3.249852e+001 -5.823109e+001 -5.079265e+001 6.173171e+001 -8.442249e+000 1.755364e+002
3808100000 -8.174003e+000 -2.418269e+001 3.242592e+001 -6.547235e+001 -5.031248e+001 5.782072e+001 -8.322008e+000 1.721975e+002
