!Keysight Technologies,N5242A,MY48320679,A.10.49.08
!Date: Tuesday, April 23, 2019 10:55:22
!Correction: S11(Full 2 Port(1,2)) 
!S21(Full 2 Port(1,2)) 
!S12(Full 2 Port(1,2)) 
!S22(Full 2 Port(1,2)) 
!S2P File: Measurements: S11, S21, S12, S22:
# Hz S  dB   R 50
10000000	-27.606062	177.765520	-0.962066	-0.810798	-0.961499	-0.846862	-27.551895	178.282420
20000000	-27.690924	174.742280	-0.964646	-1.473523	-0.964823	-1.480085	-27.542164	175.191470
30000000	-28.034561	172.724010	-0.965685	-2.231275	-0.965074	-2.241486	-27.873083	173.549510
40000000	-28.258999	172.336930	-0.965260	-2.966875	-0.965334	-2.982454	-28.156265	173.075200
50000000	-28.236988	171.433960	-0.964021	-3.724614	-0.963866	-3.750512	-28.184475	172.563310
60000000	-28.298613	169.601060	-0.963419	-4.476600	-0.963558	-4.496411	-28.108894	170.405900
70000000	-28.460905	167.993760	-0.963724	-5.215365	-0.963816	-5.233744	-28.189230	168.687960
80000000	-28.585861	166.868180	-0.963009	-5.939116	-0.963618	-5.961328	-28.293026	167.157230
90000000	-28.599476	166.109880	-0.962758	-6.683002	-0.963591	-6.709135	-28.362778	166.356320
100000000	-28.536995	164.951640	-0.962493	-7.419066	-0.963214	-7.441216	-28.338963	165.450230
110000000	-28.578363	163.373750	-0.962269	-8.142022	-0.962763	-8.169278	-28.364054	164.358720
120000000	-28.658909	162.232250	-0.962234	-8.863623	-0.963040	-8.892614	-28.430019	163.505390
130000000	-28.737320	161.398560	-0.962459	-9.582881	-0.962824	-9.611784	-28.512581	162.947450
140000000	-28.758390	160.579220	-0.962150	-10.301510	-0.963031	-10.337875	-28.556713	162.455960
150000000	-28.840857	159.349720	-0.961673	-11.028871	-0.963157	-11.057822	-28.611773	161.359560
160000000	-28.879509	158.015230	-0.961759	-11.747566	-0.963224	-11.781754	-28.689068	160.255890
170000000	-28.972467	157.049910	-0.961825	-12.470735	-0.962761	-12.504455	-28.783237	159.166950
180000000	-29.031090	156.209180	-0.961266	-13.190416	-0.962922	-13.227984	-28.863216	158.320650
190000000	-29.045582	155.157550	-0.961034	-13.912960	-0.962653	-13.950167	-28.864847	157.364520
200000000	-29.085804	153.921130	-0.961189	-14.629686	-0.962469	-14.671078	-28.851498	156.138660
210000000	-29.183884	152.583480	-0.961171	-15.351274	-0.962680	-15.394296	-28.880783	154.695480
220000000	-29.256142	151.792400	-0.961371	-16.070251	-0.962291	-16.114782	-28.890839	153.514080
230000000	-29.289722	151.139850	-0.960927	-16.786133	-0.962580	-16.832054	-28.924311	152.747360
240000000	-29.292866	150.352310	-0.960800	-17.507668	-0.962139	-17.550192	-28.950212	152.281750
250000000	-29.312513	149.017430	-0.960276	-18.223042	-0.962098	-18.268711	-28.944698	151.662780
260000000	-29.450569	147.883300	-0.960504	-18.943056	-0.961891	-18.987633	-29.065443	150.726290
270000000	-29.475580	146.828840	-0.959908	-19.655008	-0.962051	-19.705700	-29.131931	150.163590
280000000	-29.516384	145.820430	-0.959876	-20.372166	-0.962427	-20.421852	-29.179764	149.454650
290000000	-29.544867	144.562770	-0.960591	-21.082367	-0.962186	-21.137114	-29.238487	148.559070
300000000	-29.581276	143.506360	-0.960425	-21.798656	-0.962191	-21.848644	-29.302122	147.461270
310000000	-29.654524	142.511640	-0.960450	-22.511343	-0.961963	-22.561600	-29.391233	146.409040
320000000	-29.716576	141.935260	-0.961086	-23.222927	-0.962401	-23.274817	-29.492281	145.457730
330000000	-29.722610	140.977810	-0.960812	-23.941563	-0.961800	-23.994007	-29.505768	144.635160
340000000	-29.760336	140.106200	-0.960832	-24.656754	-0.961558	-24.706587	-29.480278	143.908650
350000000	-29.849985	139.265900	-0.960548	-25.367428	-0.961532	-25.423429	-29.456751	142.828740
360000000	-29.942059	138.752690	-0.959835	-26.081976	-0.962025	-26.135668	-29.460474	141.880400
370000000	-29.959000	138.187760	-0.960216	-26.795282	-0.961521	-26.850611	-29.504654	141.059370
380000000	-29.996824	137.210160	-0.960816	-27.503696	-0.962049	-27.565392	-29.552120	140.328430
390000000	-30.031033	136.117740	-0.960397	-28.218899	-0.961800	-28.275820	-29.611385	139.665130
400000000	-30.056595	135.301120	-0.960839	-28.928938	-0.962254	-28.989250	-29.659781	139.100070
410000000	-30.077164	134.482070	-0.960832	-29.642242	-0.961460	-29.699650	-29.701574	138.698700
420000000	-30.062357	133.721130	-0.960149	-30.357206	-0.961445	-30.412458	-29.737608	138.168140
430000000	-30.092962	132.643170	-0.961035	-31.067564	-0.961541	-31.124916	-29.748423	137.619380
440000000	-30.134964	131.439480	-0.960673	-31.775454	-0.962031	-31.836657	-29.785234	136.676800
450000000	-30.168680	130.489000	-0.960351	-32.490845	-0.962500	-32.550930	-29.835342	135.798000
460000000	-30.209238	129.570950	-0.960436	-33.196644	-0.962428	-33.263317	-29.909031	134.859150
470000000	-30.208849	128.839450	-0.960429	-33.908455	-0.962429	-33.968060	-29.954094	134.412800
480000000	-30.219677	127.933760	-0.960278	-34.617561	-0.961615	-34.679550	-29.965561	134.089160
490000000	-30.264189	127.103620	-0.960251	-35.326435	-0.962094	-35.392330	-29.937876	133.537630
500000000	-30.269978	126.459190	-0.960070	-36.039925	-0.962340	-36.108948	-29.955177	132.606930
510000000	-30.270779	125.267010	-0.960370	-36.753983	-0.962516	-36.816437	-30.055420	131.560180
520000000	-30.233061	124.074190	-0.960452	-37.468697	-0.961918	-37.527008	-30.136206	130.688550
530000000	-30.214741	123.086110	-0.960036	-38.177944	-0.961785	-38.240494	-30.203924	130.174740
540000000	-30.210487	122.330540	-0.960154	-38.887596	-0.962030	-38.953350	-30.258947	129.646330
550000000	-30.210827	121.743660	-0.960314	-39.602577	-0.961579	-39.666878	-30.296635	129.301480
560000000	-30.227499	121.191090	-0.960331	-40.313164	-0.961282	-40.375282	-30.301447	128.833770
570000000	-30.233194	120.430650	-0.959951	-41.022621	-0.961727	-41.085384	-30.314621	128.175830
580000000	-30.267881	119.834390	-0.960392	-41.732277	-0.960923	-41.798882	-30.338253	127.364310
590000000	-30.326603	119.151010	-0.960018	-42.441479	-0.961293	-42.508518	-30.365074	126.651200
600000000	-30.413971	118.810470	-0.960081	-43.154842	-0.962011	-43.218842	-30.400854	126.023030
610000000	-30.477747	118.384310	-0.959725	-43.861530	-0.961765	-43.929771	-30.463852	125.419450
620000000	-30.503614	117.690930	-0.960215	-44.571144	-0.961321	-44.640060	-30.490654	124.787610
630000000	-30.563208	116.690960	-0.960376	-45.278320	-0.962080	-45.347595	-30.491451	124.147960
640000000	-30.616297	115.843280	-0.960395	-45.986076	-0.961971	-46.055408	-30.510635	123.112820
650000000	-30.618799	114.971460	-0.960795	-46.697403	-0.962123	-46.767803	-30.516392	122.241420
660000000	-30.654680	114.089710	-0.960479	-47.409046	-0.961904	-47.474796	-30.576452	121.579790
670000000	-30.683271	113.171480	-0.960668	-48.115379	-0.962429	-48.182079	-30.627745	121.185960
680000000	-30.713882	112.572910	-0.960840	-48.822598	-0.962419	-48.893051	-30.680571	120.710410
690000000	-30.702496	111.998890	-0.960604	-49.531025	-0.962112	-49.600082	-30.724400	120.156580
700000000	-30.741682	111.267620	-0.960482	-50.240162	-0.962512	-50.310890	-30.754810	119.349090
710000000	-30.756159	110.554080	-0.960622	-50.948414	-0.962587	-51.022503	-30.781031	118.688830
720000000	-30.820953	109.978300	-0.960551	-51.658730	-0.962988	-51.732174	-30.802210	117.822300
730000000	-30.878773	109.768110	-0.960594	-52.369102	-0.962394	-52.446609	-30.799536	117.227460
740000000	-30.926432	109.499570	-0.961120	-53.075813	-0.962635	-53.149097	-30.813551	116.662290
750000000	-30.961126	109.067300	-0.960398	-53.788635	-0.962542	-53.861122	-30.827065	115.884160
760000000	-31.012548	108.482870	-0.960706	-54.495934	-0.962727	-54.567551	-30.859097	115.226170
770000000	-31.079786	108.084380	-0.960358	-55.201183	-0.962726	-55.274361	-30.850901	114.767630
780000000	-31.136169	108.003770	-0.960988	-55.910801	-0.962426	-55.977634	-30.817471	114.463030
790000000	-31.134239	108.030240	-0.961260	-56.614594	-0.962849	-56.688313	-30.815313	114.078480
800000000	-31.122856	107.628110	-0.960404	-57.320122	-0.962341	-57.398376	-30.810778	113.802570
810000000	-31.151989	107.050540	-0.960504	-58.027977	-0.962985	-58.101734	-30.843107	113.217620
820000000	-31.199476	106.193250	-0.960846	-58.736732	-0.963021	-58.812710	-30.881834	112.571210
830000000	-31.223700	105.748300	-0.960503	-59.444176	-0.962452	-59.515209	-30.908319	111.928920
840000000	-31.214460	105.522270	-0.960184	-60.152699	-0.962762	-60.219723	-30.954935	111.170270
850000000	-31.234932	105.353630	-0.960299	-60.858749	-0.962507	-60.932858	-30.939735	110.699740
860000000	-31.248983	105.104930	-0.960032	-61.563885	-0.962724	-61.636982	-30.929327	110.141870
870000000	-31.291862	104.839240	-0.960211	-62.273212	-0.962492	-62.342369	-30.917917	109.476570
880000000	-31.328873	104.382580	-0.960821	-62.977345	-0.962192	-63.048214	-30.915804	108.608670
890000000	-31.348446	103.717440	-0.960337	-63.682541	-0.962642	-63.754784	-30.921774	107.691490
900000000	-31.391001	102.918460	-0.960905	-64.389030	-0.962852	-64.462082	-30.920197	107.238380
910000000	-31.432081	103.024800	-0.960073	-65.097763	-0.962591	-65.168983	-30.842854	107.351980
920000000	-31.410980	103.494480	-0.960099	-65.807724	-0.961875	-65.879768	-30.791761	107.212300
930000000	-31.386353	103.437810	-0.960854	-66.510765	-0.961657	-66.585045	-30.761145	106.866480
940000000	-31.357618	102.917850	-0.960213	-67.218529	-0.962545	-67.296371	-30.767271	106.327760
950000000	-31.380550	102.229160	-0.960715	-67.923653	-0.962389	-68.003738	-30.815565	105.769680
960000000	-31.402189	102.049690	-0.960546	-68.637253	-0.962838	-68.705963	-30.838053	105.225550
970000000	-31.421144	102.329830	-0.960292	-69.343239	-0.962497	-69.413994	-30.835438	104.940380
980000000	-31.414700	102.640810	-0.960252	-70.047501	-0.962255	-70.121834	-30.812317	104.843510
990000000	-31.434652	102.234130	-0.959897	-70.752586	-0.962370	-70.834824	-30.756420	104.594310
1000000000	-31.517611	101.490210	-0.960627	-71.459869	-0.963049	-71.541298	-30.718170	104.033910
1010000000	-31.590115	100.397030	-0.960283	-72.171799	-0.962388	-72.240639	-30.704006	102.625670
1020000000	-31.632486	99.678314	-0.960180	-72.881386	-0.962620	-72.949669	-30.720394	101.669080
1030000000	-31.670523	99.169113	-0.960228	-73.588058	-0.962747	-73.658379	-30.722446	101.221530
1040000000	-31.657595	99.206146	-0.960122	-74.296951	-0.962140	-74.367889	-30.694967	101.387610
1050000000	-31.656908	99.030121	-0.960209	-75.005539	-0.962465	-75.078400	-30.667564	101.618230
1060000000	-31.678902	98.780693	-0.959881	-75.712593	-0.962433	-75.788872	-30.644747	101.271390
1070000000	-31.696800	97.772232	-0.960101	-76.417931	-0.962017	-76.496887	-30.642000	100.302660
1080000000	-31.702322	96.328621	-0.960565	-77.126152	-0.962235	-77.204948	-30.686125	98.853355
1090000000	-31.712555	95.458199	-0.960575	-77.834167	-0.962124	-77.911713	-30.707079	98.176025
1100000000	-31.706245	95.636421	-0.959804	-78.545631	-0.961962	-78.615540	-30.686008	98.347084
1110000000	-31.679548	96.452286	-0.959649	-79.254242	-0.962093	-79.325867	-30.604872	98.889771
1120000000	-31.651909	97.111176	-0.959929	-79.964622	-0.961423	-80.034744	-30.517492	99.304939
1130000000	-31.655237	96.890572	-0.959563	-80.672768	-0.962048	-80.746246	-30.460379	99.073601
1140000000	-31.693829	96.338272	-0.958789	-81.382576	-0.961979	-81.451736	-30.438246	98.396347
1150000000	-31.716997	95.986000	-0.959520	-82.089607	-0.961622	-82.158188	-30.438267	97.617622
1160000000	-31.733936	96.001602	-0.959228	-82.800598	-0.961029	-82.866394	-30.433064	97.113518
1170000000	-31.714886	96.240715	-0.958776	-83.507721	-0.961359	-83.574852	-30.439585	97.160042
1180000000	-31.759430	96.374290	-0.959114	-84.217552	-0.960562	-84.285919	-30.456017	97.124237
1190000000	-31.852228	95.858887	-0.958856	-84.926620	-0.961584	-84.993538	-30.511288	96.820190
1200000000	-31.937981	95.140617	-0.959043	-85.630432	-0.961564	-85.696480	-30.569235	95.852173
1210000000	-31.993805	94.272301	-0.958921	-86.340057	-0.961472	-86.407593	-30.615429	94.624115
1220000000	-32.013405	93.776115	-0.958476	-87.047050	-0.961124	-87.117264	-30.616243	93.886559
1230000000	-32.033016	94.072899	-0.958546	-87.753471	-0.961450	-87.824654	-30.621031	93.933273
1240000000	-32.062405	94.706696	-0.959197	-88.467873	-0.960301	-88.529160	-30.590511	94.339050
1250000000	-32.087025	94.538284	-0.958753	-89.176567	-0.960257	-89.238617	-30.563475	94.346817
1260000000	-32.107742	93.871941	-0.958033	-89.884254	-0.960990	-89.946831	-30.562414	93.800972
1270000000	-32.125446	92.761169	-0.958542	-90.592827	-0.960582	-90.658745	-30.581860	92.654655
1280000000	-32.149605	91.905632	-0.958141	-91.300682	-0.960684	-91.366936	-30.620832	91.828766
1290000000	-32.151939	92.036369	-0.958439	-92.005493	-0.960081	-92.073120	-30.644690	91.437447
1300000000	-32.126019	92.478676	-0.957547	-92.716507	-0.959937	-92.781776	-30.637005	91.412109
1310000000	-32.124420	92.335037	-0.957910	-93.424904	-0.960767	-93.491798	-30.660231	91.288231
1320000000	-32.161427	91.998886	-0.957787	-94.129868	-0.960467	-94.200287	-30.686682	90.811035
1330000000	-32.232174	91.482071	-0.957887	-94.843277	-0.960771	-94.906082	-30.709846	90.321701
1340000000	-32.246696	91.799049	-0.957570	-95.551140	-0.960495	-95.618767	-30.703106	90.096489
1350000000	-32.224525	92.529144	-0.957579	-96.254562	-0.960831	-96.331039	-30.662823	89.931839
1360000000	-32.194916	93.179642	-0.957921	-96.966652	-0.960202	-97.034714	-30.623127	89.935318
1370000000	-32.191055	93.444717	-0.957511	-97.677460	-0.959951	-97.740685	-30.588022	89.631866
1380000000	-32.239895	92.850822	-0.957414	-98.384094	-0.959890	-98.447243	-30.612217	88.851372
1390000000	-32.315109	91.705360	-0.957296	-99.090332	-0.959990	-99.147858	-30.648779	88.101227
1400000000	-32.339806	90.575859	-0.957370	-99.794708	-0.960032	-99.859230	-30.640757	87.265762
1410000000	-32.334187	90.061996	-0.957829	-100.501900	-0.959972	-100.565270	-30.645838	87.045486
1420000000	-32.318913	90.175392	-0.956787	-101.210320	-0.959504	-101.272290	-30.619781	87.252953
1430000000	-32.286827	90.724556	-0.956773	-101.915820	-0.959188	-101.980550	-30.596678	87.594795
1440000000	-32.279819	90.204834	-0.956762	-102.624580	-0.958666	-102.690730	-30.615175	87.333916
1450000000	-32.327534	88.829285	-0.957133	-103.335980	-0.959134	-103.394480	-30.668732	86.426735
1460000000	-32.368237	87.682861	-0.956835	-104.043620	-0.959012	-104.099970	-30.718185	85.374435
1470000000	-32.366810	87.352760	-0.956393	-104.748860	-0.958946	-104.809680	-30.727425	84.889503
1480000000	-32.309643	88.009422	-0.955857	-105.458550	-0.958851	-105.519670	-30.650055	85.030190
1490000000	-32.207695	89.054665	-0.955981	-106.165150	-0.958751	-106.232110	-30.523636	85.424866
1500000000	-32.153122	89.370461	-0.955341	-106.877550	-0.958260	-106.936670	-30.443264	85.290291
1510000000	-32.182224	88.678543	-0.954610	-107.588450	-0.957885	-107.642650	-30.415110	84.163475
1520000000	-32.251770	87.802589	-0.955263	-108.294390	-0.957022	-108.348370	-30.419508	83.265297
1530000000	-32.280602	87.045006	-0.954690	-108.999880	-0.957177	-109.056180	-30.452621	82.659027
1540000000	-32.279064	86.417290	-0.954685	-109.708700	-0.957488	-109.765910	-30.411005	82.581390
1550000000	-32.273518	86.080940	-0.954807	-110.414000	-0.956338	-110.473200	-30.348486	82.878525
1560000000	-32.247723	85.678833	-0.954186	-111.120570	-0.956439	-111.178640	-30.308155	82.894295
1570000000	-32.256645	85.482590	-0.953943	-111.826880	-0.956471	-111.886270	-30.299726	82.956436
1580000000	-32.188416	85.101364	-0.954327	-112.533240	-0.956066	-112.596750	-30.281006	82.860420
1590000000	-32.126709	85.009827	-0.953945	-113.239360	-0.955549	-113.305470	-30.256954	82.848091
1600000000	-32.013130	85.107590	-0.954312	-113.947020	-0.955427	-114.013160	-30.202524	83.194206
1610000000	-31.949915	85.281708	-0.954223	-114.657070	-0.955904	-114.721600	-30.123278	83.375549
1620000000	-31.872784	85.063713	-0.954483	-115.364740	-0.955039	-115.429940	-30.061592	83.234421
1630000000	-31.885534	84.186447	-0.953601	-116.071890	-0.954864	-116.133770	-30.050234	82.627769
1640000000	-31.943638	82.649063	-0.953473	-116.776310	-0.955181	-116.839710	-30.058056	81.541878
1650000000	-31.947325	81.704865	-0.953756	-117.480120	-0.954778	-117.544890	-30.035646	80.668304
1660000000	-31.833479	81.923920	-0.953343	-118.187700	-0.955009	-118.250040	-29.962288	80.863686
1670000000	-31.663528	82.609436	-0.952971	-118.893260	-0.954558	-118.960410	-29.846592	81.624001
1680000000	-31.480738	82.726105	-0.952751	-119.598460	-0.954751	-119.665700	-29.721621	82.528000
1690000000	-31.422405	82.201447	-0.952218	-120.309110	-0.954865	-120.371390	-29.637564	82.753082
1700000000	-31.447788	81.261055	-0.951730	-121.013860	-0.955185	-121.076570	-29.618231	82.589584
1710000000	-31.475058	80.345543	-0.952322	-121.719660	-0.954412	-121.785320	-29.635765	82.118713
1720000000	-31.429285	80.149239	-0.951564	-122.426200	-0.954780	-122.492960	-29.642231	82.025162
1730000000	-31.321316	80.289375	-0.951351	-123.133700	-0.954496	-123.198040	-29.586580	82.057144
1740000000	-31.199215	80.385208	-0.951171	-123.841260	-0.954110	-123.902150	-29.539385	82.138008
1750000000	-31.145933	80.135513	-0.951480	-124.548100	-0.954255	-124.605330	-29.515551	81.968735
1760000000	-31.155117	79.381592	-0.950334	-125.249620	-0.953762	-125.309970	-29.526146	81.237091
1770000000	-31.181225	78.336136	-0.950568	-125.955090	-0.953820	-126.016300	-29.549202	80.254829
1780000000	-31.160036	77.587677	-0.950644	-126.660480	-0.953897	-126.719200	-29.516500	79.542908
1790000000	-31.076403	77.614243	-0.950276	-127.364250	-0.953348	-127.428120	-29.423435	79.307968
1800000000	-30.951670	78.066895	-0.950800	-128.069890	-0.953143	-128.135250	-29.303835	79.490219
1810000000	-30.810518	78.138245	-0.949841	-128.779270	-0.952707	-128.845120	-29.215881	79.724785
1820000000	-30.769400	77.538414	-0.949458	-129.488710	-0.952152	-129.550840	-29.164850	79.657181
1830000000	-30.795683	76.783455	-0.949374	-130.193480	-0.951884	-130.254410	-29.148764	79.406471
1840000000	-30.833555	76.136932	-0.949671	-130.900540	-0.951540	-130.958340	-29.120247	78.944572
1850000000	-30.794445	76.032875	-0.949146	-131.605470	-0.951320	-131.666260	-29.082293	78.496643
1860000000	-30.697813	76.357071	-0.948962	-132.313480	-0.950892	-132.373080	-29.020559	78.416901
1870000000	-30.617556	76.251907	-0.949268	-133.021450	-0.951388	-133.078200	-28.983255	78.168800
1880000000	-30.616436	75.766945	-0.949004	-133.727490	-0.950815	-133.779340	-29.011435	77.564445
1890000000	-30.642122	75.269707	-0.949312	-134.426350	-0.950457	-134.484250	-29.031393	76.805092
1900000000	-30.620064	74.681770	-0.948961	-135.128710	-0.950309	-135.192210	-29.020348	76.016296
1910000000	-30.520317	74.483353	-0.948372	-135.834560	-0.950548	-135.900130	-28.932446	75.488022
1920000000	-30.342962	74.711014	-0.947483	-136.543410	-0.949921	-136.603850	-28.766800	75.338783
1930000000	-30.209438	75.019211	-0.947538	-137.247730	-0.949261	-137.309420	-28.611210	75.280457
1940000000	-30.115036	75.067085	-0.947488	-137.955350	-0.949435	-138.016300	-28.495966	75.073959
1950000000	-30.072838	74.896088	-0.946671	-138.661320	-0.948877	-138.724270	-28.466505	74.705360
1960000000	-30.072012	74.249153	-0.946645	-139.367080	-0.948605	-139.433060	-28.448641	74.409782
1970000000	-30.082733	73.635147	-0.946528	-140.070250	-0.948428	-140.139660	-28.431004	73.977539
1980000000	-30.042374	73.376823	-0.946249	-140.775540	-0.948037	-140.841920	-28.341181	73.752769
1990000000	-29.964314	73.425583	-0.946107	-141.491960	-0.947687	-141.544110	-28.273762	73.560944
2000000000	-29.919838	73.126602	-0.945961	-142.194580	-0.947213	-142.250410	-28.248678	73.182571
2010000000	-29.932707	72.533737	-0.945654	-142.897710	-0.947725	-142.954710	-28.276903	72.737991
2020000000	-29.963554	71.991127	-0.946090	-143.601610	-0.947740	-143.659560	-28.300303	71.975006
2030000000	-29.958376	71.632385	-0.945226	-144.303500	-0.947184	-144.367220	-28.276890	71.127968
